Circuit: * C:\Users\Lucas\Documents\Actualmente Usando\Teoría de Circuitos\TP5\EJ1\Simulaciones\Bessel\Draft1.asc

Direct Newton iteration for .op point succeeded.
Semiconductor Device Operating Points:
                        --- Bipolar Transistors ---
Name:       q3          q2          q1
Model:    bc547c      bc547c      bc547c
Ib:       1.57e-06    2.21e-06    2.21e-06
Ic:       9.00e-04    1.00e-03    1.00e-03
Vbe:      6.13e-01    6.22e-01    6.22e-01
Vbc:     -1.38e+01    0.00e+00    0.00e+00
Vce:      1.44e+01    6.22e-01    6.22e-01
BetaDC:   5.72e+02    4.52e+02    4.52e+02
Gm:       3.42e-02    3.80e-02    3.80e-02
Rpi:      1.66e+04    1.18e+04    1.18e+04
Rx:       1.00e+00    1.00e+00    1.00e+00
Ro:       7.37e+04    5.25e+04    5.25e+04
Cbe:      4.74e-11    4.97e-11    4.97e-11
Cbc:      8.40e-13    2.74e-12    2.74e-12
Cjs:      0.00e+00    0.00e+00    0.00e+00
BetaAC:   5.70e+02    4.50e+02    4.50e+02
Cbx:      5.16e-13    1.69e-12    1.69e-12
Ft:       1.12e+08    1.12e+08    1.12e+08



Date: Sun Nov 03 19:00:34 2019
Total elapsed time: 0.090 seconds.

tnom = 27
temp = 27
method = trap
totiter = 7
traniter = 0
tranpoints = 0
accept = 0
rejected = 0
matrix size = 14
fillins = 0
solver = Normal
Matrix Compiler1: 1.07 KB object code size
Matrix Compiler2: 1.19 KB object code size
