Circuit: * C:\Users\Lucas\Documents\Actualmente Usando\Teoría de Circuitos\TP5\EJ1\Simulaciones\Bessel\Draft1.asc

Direct Newton iteration for .op point succeeded.
Semiconductor Device Operating Points:
                        --- JFET Transistors ---
Name:      j1
Model:   2n5460
Id:     -1.12e-02
Vgs:     0.00e+00
Vds:    -3.80e+00
Gm:      6.81e-03
Gds:     1.08e-04
Cgs:     4.74e-12
Cgd:     2.31e-12



Date: Mon Nov 04 21:42:16 2019
Total elapsed time: 0.550 seconds.

tnom = 27
temp = 27
method = trap
totiter = 6
traniter = 0
tranpoints = 0
accept = 0
rejected = 0
matrix size = 5
fillins = 0
solver = Normal
Matrix Compiler1: 168 bytes object code size
Matrix Compiler2: 355 bytes object code size
