Freq.	V(n003)
Step Information: 1=1  (Run: 1/11)
1.00000000000000e+003	(-93.0054183409236dB,-180.43462644678°)
1.00230523807790e+003	(-92.9653568860877dB,-180.435629797737°)
1.00461579027840e+003	(-92.9252951473715dB,-180.436635471588°)
1.00693166885180e+003	(-92.885233123463dB,-180.437643473763°)
1.00925288607668e+003	(-92.8451708130434dB,-180.438653809697°)
1.01157945425990e+003	(-92.805108214788dB,-180.439666484877°)
1.01391138573668e+003	(-92.7650453273665dB,-180.440681504713°)
1.01624869287070e+003	(-92.724982149442dB,-180.441698874718°)
1.01859138805412e+003	(-92.6849186796714dB,-180.442718600399°)
1.02093948370768e+003	(-92.6448549167056dB,-180.443740687205°)
1.02329299228075e+003	(-92.6047908591889dB,-180.444765140679°)
1.02565192625141e+003	(-92.5647265057596dB,-180.44579196636°)
1.02801629812647e+003	(-92.5246618550498dB,-180.44682116977°)
1.03038612044162e+003	(-92.4845969056851dB,-180.447852756455°)
1.03276140576140e+003	(-92.4445316562846dB,-180.448886732029°)
1.03514216667934e+003	(-92.4044661054612dB,-180.449923102048°)
1.03752841581801e+003	(-92.3644002518213dB,-180.450961872096°)
1.03992016582906e+003	(-92.324334093965dB,-180.452003047774°)
1.04231742939330e+003	(-92.2842676304857dB,-180.453046634727°)
1.04472021922080e+003	(-92.2442008599702dB,-180.454092638603°)
1.04712854805090e+003	(-92.2041337809991dB,-180.455141065031°)
1.04954242865232e+003	(-92.1640663921464dB,-180.456191919662°)
1.05196187382322e+003	(-92.123998691979dB,-180.457245208203°)
1.05438689639126e+003	(-92.0839306790579dB,-180.458300936307°)
1.05681750921366e+003	(-92.0438623519368dB,-180.459359109692°)
1.05925372517729e+003	(-92.003793709163dB,-180.460419734113°)
1.06169555719872e+003	(-91.9637247492768dB,-180.46148281526°)
1.06414301822431e+003	(-91.9236554708125dB,-180.462548358887°)
1.06659612123026e+003	(-91.8835858722967dB,-180.463616370746°)
1.06905487922266e+003	(-91.8435159522495dB,-180.464686856617°)
1.07151930523761e+003	(-91.8034457091844dB,-180.465759822301°)
1.07398941234124e+003	(-91.7633751416077dB,-180.466835273566°)
1.07646521362983e+003	(-91.7233042480187dB,-180.46791321626°)
1.07894672222983e+003	(-91.6832330269103dB,-180.468993656174°)
1.08143395129794e+003	(-91.643161476768dB,-180.470076599182°)
1.08392691402120e+003	(-91.6030895960701dB,-180.471162051134°)
1.08642562361706e+003	(-91.5630173832882dB,-180.4722500179°)
1.08893009333343e+003	(-91.5229448368868dB,-180.473340505357°)
1.09144033644875e+003	(-91.4828719553232dB,-180.474433519407°)
1.09395636627209e+003	(-91.4427987370474dB,-180.475529065969°)
1.09647819614318e+003	(-91.4027251805024dB,-180.476627150961°)
1.09900583943252e+003	(-91.3626512841242dB,-180.477727780324°)
1.10153930954141e+003	(-91.322577046341dB,-180.478830960034°)
1.10407861990207e+003	(-91.2825024655742dB,-180.479936696049°)
1.10662378397766e+003	(-91.2424275402378dB,-180.481044994333°)
1.10917481526240e+003	(-91.2023522687381dB,-180.482155860903°)
1.11173172728159e+003	(-91.1622766494744dB,-180.483269301781°)
1.11429453359173e+003	(-91.1222006808386dB,-180.48438532299°)
1.11686324778056e+003	(-91.0821243612151dB,-180.485503930561°)
1.11943788346715e+003	(-91.0420476889804dB,-180.48662513056°)
1.12201845430196e+003	(-91.0019706625039dB,-180.487748929064°)
1.12460497396692e+003	(-90.9618932801475dB,-180.48887533216°)
1.12719745617551e+003	(-90.9218155402654dB,-180.490004345927°)
1.12979591467279e+003	(-90.881737441204dB,-180.491135976509°)
1.13240036323555e+003	(-90.8416589813022dB,-180.492270230013°)
1.13501081567231e+003	(-90.8015801588912dB,-180.493407112615°)
1.13762728582343e+003	(-90.7615009722945dB,-180.494546630431°)
1.14024978756117e+003	(-90.7214214198275dB,-180.495688789696°)
1.14287833478977e+003	(-90.6813414997985dB,-180.496833596549°)
1.14551294144553e+003	(-90.6412612105075dB,-180.497981057195°)
1.14815362149688e+003	(-90.6011805502462dB,-180.499131177892°)
1.15080038894443e+003	(-90.5610995172993dB,-180.500283964847°)
1.15345325782109e+003	(-90.5210181099429dB,-180.50143942433°)
1.15611224219210e+003	(-90.4809363264452dB,-180.502597562578°)
1.15877735615512e+003	(-90.4408541650666dB,-180.503758385898°)
1.16144861384034e+003	(-90.4007716240593dB,-180.504921900575°)
1.16412602941049e+003	(-90.3606887016675dB,-180.506088112921°)
1.16680961706096e+003	(-90.3206053961271dB,-180.50725702925°)
1.16949939101987e+003	(-90.2805217056658dB,-180.508428655922°)
1.17219536554813e+003	(-90.2404376285034dB,-180.509602999297°)
1.17489755493953e+003	(-90.200353162851dB,-180.510780065737°)
1.17760597352080e+003	(-90.1602683069117dB,-180.511959861624°)
1.18032063565173e+003	(-90.1201830588802dB,-180.513142393369°)
1.18304155572516e+003	(-90.0800974169429dB,-180.514327667399°)
1.18576874816716e+003	(-90.0400113792778dB,-180.515515690156°)
1.18850222743701e+003	(-89.9999249440542dB,-180.516706468048°)
1.19124200802737e+003	(-89.9598381094333dB,-180.517900007583°)
1.19398810446427e+003	(-89.9197508735675dB,-180.51909631522°)
1.19674053130724e+003	(-89.8796632346006dB,-180.520295397458°)
1.19949930314937e+003	(-89.8395751906681dB,-180.521497260822°)
1.20226443461741e+003	(-89.7994867398965dB,-180.52270191185°)
1.20503594037179e+003	(-89.7593978804039dB,-180.523909357045°)
1.20781383510678e+003	(-89.7193086102995dB,-180.525119602991°)
1.21059813355048e+003	(-89.6792189276837dB,-180.526332656302°)
1.21338885046497e+003	(-89.6391288306484dB,-180.527548523513°)
1.21618600064636e+003	(-89.5990383172762dB,-180.528767211257°)
1.21898959892486e+003	(-89.5589473856411dB,-180.529988726162°)
1.22179966016487e+003	(-89.5188560338082dB,-180.531213074865°)
1.22461619926504e+003	(-89.4787642598336dB,-180.532440264028°)
1.22743923115840e+003	(-89.4386720617641dB,-180.533670300322°)
1.23026877081238e+003	(-89.3985794376378dB,-180.534903190429°)
1.23310483322890e+003	(-89.3584863854836dB,-180.536138941052°)
1.23594743344450e+003	(-89.3183929033212dB,-180.537377558919°)
1.23879658653036e+003	(-89.2782989891612dB,-180.538619050785°)
1.24165230759241e+003	(-89.2382046410048dB,-180.539863423376°)
1.24451461177138e+003	(-89.1981098568441dB,-180.541110683495°)
1.24738351424294e+003	(-89.1580146346619dB,-180.542360837918°)
1.25025903021771e+003	(-89.1179189724316dB,-180.543613893417°)
1.25314117494141e+003	(-89.0778228681173dB,-180.54486985685°)
1.25602996369487e+003	(-89.0377263196733dB,-180.546128735054°)
1.25892541179416e+003	(-88.9976293250446dB,-180.547390534879°)
1.26182753459066e+003	(-88.957531882167dB,-180.548655263184°)
1.26473634747115e+003	(-88.9174339889664dB,-180.549922926855°)
1.26765186585784e+003	(-88.877335643359dB,-180.551193532832°)
1.27057410520854e+003	(-88.8372368432516dB,-180.552467087991°)
1.27350308101666e+003	(-88.7971375865411dB,-180.553743599297°)
1.27643880881134e+003	(-88.7570378711147dB,-180.555023073704°)
1.27938130415752e+003	(-88.7169376948499dB,-180.556305518185°)
1.28233058265601e+003	(-88.676837055614dB,-180.55759093973°)
1.28528665994361e+003	(-88.6367359512649dB,-180.558879345322°)
1.28824955169313e+003	(-88.5966343796504dB,-180.560170742017°)
1.29121927361353e+003	(-88.5565323386079dB,-180.561465136852°)
1.29419584144998e+003	(-88.5164298259654dB,-180.562762536869°)
1.29717927098395e+003	(-88.4763268395405dB,-180.564062949152°)
1.30016957803328e+003	(-88.4362233771408dB,-180.565366380791°)
1.30316677845229e+003	(-88.3961194365633dB,-180.566672838915°)
1.30617088813183e+003	(-88.3560150155953dB,-180.567982330617°)
1.30918192299940e+003	(-88.3159101120139dB,-180.569294863068°)
1.31219989901920e+003	(-88.2758047235852dB,-180.570610443435°)
1.31522483219223e+003	(-88.2356988480657dB,-180.571929078869°)
1.31825673855640e+003	(-88.1955924832009dB,-180.573250776616°)
1.32129563418657e+003	(-88.1554856267263dB,-180.574575543858°)
1.32434153519466e+003	(-88.1153782763666dB,-180.575903387814°)
1.32739445772973e+003	(-88.0752704298361dB,-180.577234315765°)
1.33045441797808e+003	(-88.0351620848384dB,-180.578568334976°)
1.33352143216332e+003	(-87.9950532390665dB,-180.579905452722°)
1.33659551654643e+003	(-87.9549438902025dB,-180.581245676321°)
1.33967668742593e+003	(-87.9148340359181dB,-180.582589013088°)
1.34276496113786e+003	(-87.8747236738739dB,-180.583935470369°)
1.34586035405594e+003	(-87.8346128017198dB,-180.585285055513°)
1.34896288259165e+003	(-87.7945014170947dB,-180.586637775905°)
1.35207256319427e+003	(-87.7543895176265dB,-180.587993638957°)
1.35518941235103e+003	(-87.7142771009325dB,-180.589352652046°)
1.35831344658715e+003	(-87.6741641646182dB,-180.590714822617°)
1.36144468246594e+003	(-87.6340507062786dB,-180.592080158134°)
1.36458313658892e+003	(-87.5939367234973dB,-180.593448666062°)
1.36772882559584e+003	(-87.5538222138466dB,-180.594820353885°)
1.37088176616484e+003	(-87.5137071748878dB,-180.596195229095°)
1.37404197501251e+003	(-87.4735916041707dB,-180.597573299227°)
1.37720946889394e+003	(-87.4334754992339dB,-180.598954571815°)
1.38038426460288e+003	(-87.3933588576039dB,-180.600339054456°)
1.38356637897177e+003	(-87.3532416767968dB,-180.601726754671°)
1.38675582887188e+003	(-87.3131239543162dB,-180.603117680123°)
1.38995263121334e+003	(-87.2730056876548dB,-180.604511838374°)
1.39315680294529e+003	(-87.2328868742934dB,-180.605909237079°)
1.39636836105593e+003	(-87.1927675117007dB,-180.607309883926°)
1.39958732257261e+003	(-87.1526475973344dB,-180.60871378652°)
1.40281370456195e+003	(-87.11252712864dB,-180.610120952604°)
1.40604752412990e+003	(-87.0724061030509dB,-180.611531389899°)
1.40928879842186e+003	(-87.0322845179891dB,-180.612945106098°)
1.41253754462274e+003	(-86.9921623708643dB,-180.614362108971°)
1.41579377995707e+003	(-86.9520396590742dB,-180.615782406293°)
1.41905752168908e+003	(-86.9119163800043dB,-180.617206005838°)
1.42232878712281e+003	(-86.8717925310284dB,-180.618632915427°)
1.42560759360218e+003	(-86.8316681095079dB,-180.62006314286°)
1.42889395851109e+003	(-86.7915431127915dB,-180.621496696025°)
1.43218789927353e+003	(-86.7514175382159dB,-180.622933582758°)
1.43548943335364e+003	(-86.711291383106dB,-180.624373810962°)
1.43879857825583e+003	(-86.6711646447733dB,-180.625817388532°)
1.44211535152486e+003	(-86.6310373205174dB,-180.627264323397°)
1.44543977074592e+003	(-86.5909094076253dB,-180.628714623499°)
1.44877185354475e+003	(-86.5507809033712dB,-180.630168296813°)
1.45211161758773e+003	(-86.5106518050167dB,-180.631625351303°)
1.45545908058195e+003	(-86.4705221098111dB,-180.633085794981°)
1.45881426027534e+003	(-86.4303918149901dB,-180.634549635877°)
1.46217717445671e+003	(-86.3902609177774dB,-180.636016882042°)
1.46554784095590e+003	(-86.3501294153831dB,-180.637487541533°)
1.46892627764385e+003	(-86.3099973050049dB,-180.63896162239°)
1.47231250243271e+003	(-86.2698645838271dB,-180.640439132807°)
1.47570653327588e+003	(-86.2297312490211dB,-180.641920080839°)
1.47910838816819e+003	(-86.1895972977451dB,-180.643404474659°)
1.48251808514594e+003	(-86.1494627271441dB,-180.644892322416°)
1.48593564228699e+003	(-86.10932753435dB,-180.646383632293°)
1.48936107771090e+003	(-86.0691917164809dB,-180.647878412516°)
1.49279440957898e+003	(-86.0290552706421dB,-180.649376671308°)
1.49623565609442e+003	(-85.9889181939251dB,-180.650878416896°)
1.49968483550236e+003	(-85.9487804834079dB,-180.652383657573°)
1.50314196609001e+003	(-85.908642136155dB,-180.653892401602°)
1.50660706618673e+003	(-85.8685031492172dB,-180.655404657303°)
1.51008015416413e+003	(-85.8283635196317dB,-180.65692043301°)
1.51356124843619e+003	(-85.7882232444217dB,-180.658439737069°)
1.51705036745932e+003	(-85.748082320597dB,-180.659962577853°)
1.52054752973248e+003	(-85.7079407451529dB,-180.661488963749°)
1.52405275379728e+003	(-85.6677985150714dB,-180.663018903168°)
1.52756605823806e+003	(-85.6276556273198dB,-180.664552404558°)
1.53108746168201e+003	(-85.5875120788519dB,-180.666089476358°)
1.53461698279928e+003	(-85.5473678666068dB,-180.667630127066°)
1.53815464030302e+003	(-85.5072229875097dB,-180.669174365159°)
1.54170045294954e+003	(-85.4670774384715dB,-180.670722199167°)
1.54525443953840e+003	(-85.4269312163888dB,-180.672273637626°)
1.54881661891247e+003	(-85.3867843181435dB,-180.673828689101°)
1.55238700995807e+003	(-85.3466367406032dB,-180.675387362172°)
1.55596563160506e+003	(-85.3064884806209dB,-180.67694966544°)
1.55955250282694e+003	(-85.2663395350349dB,-180.678515607543°)
1.56314764264094e+003	(-85.2261899006688dB,-180.680085197126°)
1.56675107010813e+003	(-85.1860395743317dB,-180.681658442861°)
1.57036280433354e+003	(-85.1458885528175dB,-180.683235353431°)
1.57398286446620e+003	(-85.1057368329054dB,-180.684815937542°)
1.57761126969933e+003	(-85.0655844113595dB,-180.686400203946°)
1.58124803927037e+003	(-85.0254312849289dB,-180.687988161416°)
1.58489319246110e+003	(-84.9852774503475dB,-180.689579818697°)
1.58854674859776e+003	(-84.9451229043344dB,-180.691175184609°)
1.59220872705115e+003	(-84.9049676435929dB,-180.692774267972°)
1.59587914723672e+003	(-84.864811664811dB,-180.694377077652°)
1.59955802861465e+003	(-84.8246549646621dB,-180.695983622476°)
1.60324539069002e+003	(-84.7844975398031dB,-180.697593911371°)
1.60694125301286e+003	(-84.7443393868756dB,-180.699207953246°)
1.61064563517825e+003	(-84.7041805025063dB,-180.700825757004°)
1.61435855682647e+003	(-84.6640208833052dB,-180.702447331648°)
1.61808003764305e+003	(-84.6238605258672dB,-180.70407268614°)
1.62181009735891e+003	(-84.5836994267711dB,-180.705701829477°)
1.62554875575047e+003	(-84.5435375825797dB,-180.707334770695°)
1.62929603263970e+003	(-84.50337498984dB,-180.708971518848°)
1.63305194789432e+003	(-84.463211645083dB,-180.710612082997°)
1.63681652142779e+003	(-84.4230475448232dB,-180.712256472246°)
1.64058977319952e+003	(-84.3828826855594dB,-180.713904695716°)
1.64437172321491e+003	(-84.3427170637734dB,-180.715556762529°)
1.64816239152549e+003	(-84.3025506759314dB,-180.717212681886°)
1.65196179822900e+003	(-84.2623835184826dB,-180.718872462935°)
1.65576996346951e+003	(-84.2222155878599dB,-180.720536114923°)
1.65958690743754e+003	(-84.1820468804796dB,-180.722203647042°)
1.66341265037015e+003	(-84.1418773927412dB,-180.723875068601°)
1.66724721255104e+003	(-84.1017071210278dB,-180.725550388847°)
1.67109061431069e+003	(-84.0615360617049dB,-180.727229617101°)
1.67494287602642e+003	(-84.0213642111219dB,-180.728912762687°)
1.67880401812254e+003	(-83.9811915656108dB,-180.730599834956°)
1.68267406107045e+003	(-83.9410181214867dB,-180.732290843299°)
1.68655302538872e+003	(-83.9008438750473dB,-180.733985797084°)
1.69044093164324e+003	(-83.8606688225732dB,-180.735684705768°)
1.69433780044731e+003	(-83.8204929603278dB,-180.737387578781°)
1.69824365246172e+003	(-83.7803162845569dB,-180.739094425608°)
1.70215850839493e+003	(-83.740138791489dB,-180.740805255742°)
1.70608238900310e+003	(-83.6999604773348dB,-180.742520078699°)
1.71001531509027e+003	(-83.6597813382876dB,-180.744238904029°)
1.71395730750840e+003	(-83.6196013705229dB,-180.745961741303°)
1.71790838715757e+003	(-83.5794205701984dB,-180.747688600112°)
1.72186857498598e+003	(-83.5392389334539dB,-180.749419490065°)
1.72583789199018e+003	(-83.4990564564107dB,-180.75115442084°)
1.72981635921508e+003	(-83.4588731351732dB,-180.752893402066°)
1.73380399775412e+003	(-83.4186889658267dB,-180.754636443449°)
1.73780082874935e+003	(-83.3785039444385dB,-180.756383554721°)
1.74180687339159e+003	(-83.3383180670576dB,-180.758134745615°)
1.74582215292048e+003	(-83.2981313297149dB,-180.759890025888°)
1.74984668862463e+003	(-83.2579437284221dB,-180.761649405337°)
1.75388050184174e+003	(-83.2177552591732dB,-180.763412893784°)
1.75792361395867e+003	(-83.1775659179426dB,-180.765180501089°)
1.76197604641161e+003	(-83.1373757006869dB,-180.766952237093°)
1.76603782068614e+003	(-83.0971846033432dB,-180.768728111689°)
1.77010895831740e+003	(-83.0569926218298dB,-180.770508134819°)
1.77418948089014e+003	(-83.0167997520461dB,-180.772292316417°)
1.77827941003890e+003	(-82.9766059898723dB,-180.774080666445°)
1.78237876744807e+003	(-82.9364113311695dB,-180.775873194912°)
1.78648757485203e+003	(-82.8962157717794dB,-180.777669911833°)
1.79060585403527e+003	(-82.8560193075242dB,-180.779470827253°)
1.79473362683250e+003	(-82.8158219342071dB,-180.781275951253°)
1.79887091512876e+003	(-82.7756236476113dB,-180.783085293912°)
1.80301774085954e+003	(-82.7354244435004dB,-180.784898865389°)
1.80717412601090e+003	(-82.6952243176184dB,-180.786716675819°)
1.81134009261958e+003	(-82.6550232656894dB,-180.788538735358°)
1.81551566277311e+003	(-82.6148212834174dB,-180.790365054243°)
1.81970085860996e+003	(-82.5746183664867dB,-180.792195642697°)
1.82389570231961e+003	(-82.5344145105613dB,-180.794030510961°)
1.82810021614272e+003	(-82.494209711285dB,-180.795869669333°)
1.83231442237119e+003	(-82.4540039642811dB,-180.797713128112°)
1.83653834334832e+003	(-82.4137972651527dB,-180.799560897656°)
1.84077200146893e+003	(-82.3735896094826dB,-180.801412988305°)
1.84501541917945e+003	(-82.3333809928326dB,-180.80326941046°)
1.84926861897805e+003	(-82.2931714107439dB,-180.805130174535°)
1.85353162341478e+003	(-82.252960858737dB,-180.806995290987°)
1.85780445509167e+003	(-82.2127493323116dB,-180.808864770273°)
1.86208713666284e+003	(-82.1725368269463dB,-180.810738622884°)
1.86637969083464e+003	(-82.1323233380983dB,-180.812616859371°)
1.87068214036577e+003	(-82.0921088612043dB,-180.81449949027°)
1.87499450806739e+003	(-82.0518933916791dB,-180.816386526172°)
1.87931681680324e+003	(-82.0116769249163dB,-180.81827797767°)
1.88364908948977e+003	(-81.9714594562882dB,-180.820173855416°)
1.88799134909627e+003	(-81.9312409811453dB,-180.822074170066°)
1.89234361864495e+003	(-81.8910214948163dB,-180.823978932314°)
1.89670592121112e+003	(-81.8508009926082dB,-180.825888152873°)
1.90107827992327e+003	(-81.8105794698066dB,-180.827801842502°)
1.90546071796322e+003	(-81.7703569216743dB,-180.829720011964°)
1.90985325856621e+003	(-81.7301333434525dB,-180.831642672081°)
1.91425592502106e+003	(-81.6899087303598dB,-180.833569833665°)
1.91866874067026e+003	(-81.649683077593dB,-180.835501507585°)
1.92309172891013e+003	(-81.6094563803261dB,-180.837437704735°)
1.92752491319091e+003	(-81.5692286337107dB,-180.839378436025°)
1.93196831701689e+003	(-81.5289998328757dB,-180.841323712406°)
1.93642196394658e+003	(-81.4887699729274dB,-180.84327354484°)
1.94088587759275e+003	(-81.4485390489492dB,-180.84522794434°)
1.94536008162263e+003	(-81.4083070560012dB,-180.847186921944°)
1.94984459975802e+003	(-81.368073989121dB,-180.849150488704°)
1.95433945577536e+003	(-81.3278398433228dB,-180.851118655702°)
1.95884467350596e+003	(-81.2876046135974dB,-180.853091434077°)
1.96336027683602e+003	(-81.2473682949124dB,-180.855068834968°)
1.96788628970681e+003	(-81.2071308822116dB,-180.857050869558°)
1.97242273611482e+003	(-81.1668923704156dB,-180.859037549044°)
1.97696964011183e+003	(-81.1266527544209dB,-180.861028884673°)
1.98152702580507e+003	(-81.0864120291006dB,-180.863024887693°)
1.98609491735734e+003	(-81.0461701893032dB,-180.865025569429°)
1.99067333898715e+003	(-81.0059272298537dB,-180.867030941185°)
1.99526231496885e+003	(-80.9656831455528dB,-180.869041014338°)
1.99986186963271e+003	(-80.9254379311768dB,-180.871055800236°)
2.00447202736513e+003	(-80.8851915814776dB,-180.873075310337°)
2.00909281260870e+003	(-80.8449440911828dB,-180.875099556056°)
2.01372424986236e+003	(-80.8046954549949dB,-180.877128548893°)
2.01836636368153e+003	(-80.7644456675922dB,-180.879162300338°)
2.02301917867824e+003	(-80.7241947236277dB,-180.881200821935°)
2.02768271952125e+003	(-80.6839426177298dB,-180.883244125245°)
2.03235701093619e+003	(-80.6436893445012dB,-180.885292221883°)
2.03704207770568e+003	(-80.6034348985201dB,-180.887345123464°)
2.04173794466950e+003	(-80.5631792743389dB,-180.889402841656°)
2.04644463672464e+003	(-80.5229224664845dB,-180.891465388138°)
2.05116217882553e+003	(-80.4826644694587dB,-180.893532774642°)
2.05589059598411e+003	(-80.4424052777369dB,-180.89560501292°)
2.06062991326997e+003	(-80.4021448857693dB,-180.897682114758°)
2.06538015581049e+003	(-80.3618832879797dB,-180.899764091972°)
2.07014134879101e+003	(-80.321620478766dB,-180.901850956402°)
