Freq.	V(n003)
Step Information: 1=1  (Run: 1/11)
1.00000000000000e+003	(-9.30054183409236e+001dB,1.79565373553220e+002°)
1.00230523807790e+003	(-9.29653568860877e+001dB,1.79564370202263e+002°)
1.00461579027840e+003	(-9.29252951473715e+001dB,1.79563364528412e+002°)
1.00693166885180e+003	(-9.28852331234630e+001dB,1.79562356526237e+002°)
1.00925288607668e+003	(-9.28451708130434e+001dB,1.79561346190303e+002°)
1.01157945425990e+003	(-9.28051082147880e+001dB,1.79560333515123e+002°)
1.01391138573668e+003	(-9.27650453273665e+001dB,1.79559318495287e+002°)
1.01624869287070e+003	(-9.27249821494420e+001dB,1.79558301125282e+002°)
1.01859138805412e+003	(-9.26849186796714e+001dB,1.79557281399601e+002°)
1.02093948370768e+003	(-9.26448549167056e+001dB,1.79556259312795e+002°)
1.02329299228075e+003	(-9.26047908591889e+001dB,1.79555234859321e+002°)
1.02565192625141e+003	(-9.25647265057596e+001dB,1.79554208033640e+002°)
1.02801629812647e+003	(-9.25246618550498e+001dB,1.79553178830230e+002°)
1.03038612044162e+003	(-9.24845969056851e+001dB,1.79552147243545e+002°)
1.03276140576140e+003	(-9.24445316562846e+001dB,1.79551113267971e+002°)
1.03514216667934e+003	(-9.24044661054612e+001dB,1.79550076897952e+002°)
1.03752841581801e+003	(-9.23644002518213e+001dB,1.79549038127904e+002°)
1.03992016582906e+003	(-9.23243340939650e+001dB,1.79547996952226e+002°)
1.04231742939330e+003	(-9.22842676304857e+001dB,1.79546953365273e+002°)
1.04472021922080e+003	(-9.22442008599702e+001dB,1.79545907361397e+002°)
1.04712854805090e+003	(-9.22041337809991e+001dB,1.79544858934969e+002°)
1.04954242865232e+003	(-9.21640663921464e+001dB,1.79543808080338e+002°)
1.05196187382322e+003	(-9.21239986919790e+001dB,1.79542754791797e+002°)
1.05438689639126e+003	(-9.20839306790579e+001dB,1.79541699063693e+002°)
1.05681750921366e+003	(-9.20438623519368e+001dB,1.79540640890308e+002°)
1.05925372517729e+003	(-9.20037937091630e+001dB,1.79539580265887e+002°)
1.06169555719872e+003	(-9.19637247492768e+001dB,1.79538517184740e+002°)
1.06414301822431e+003	(-9.19236554708125e+001dB,1.79537451641113e+002°)
1.06659612123026e+003	(-9.18835858722967e+001dB,1.79536383629254e+002°)
1.06905487922266e+003	(-9.18435159522495e+001dB,1.79535313143383e+002°)
1.07151930523761e+003	(-9.18034457091844e+001dB,1.79534240177699e+002°)
1.07398941234124e+003	(-9.17633751416077e+001dB,1.79533164726434e+002°)
1.07646521362983e+003	(-9.17233042480187e+001dB,1.79532086783740e+002°)
1.07894672222983e+003	(-9.16832330269103e+001dB,1.79531006343826e+002°)
1.08143395129794e+003	(-9.16431614767680e+001dB,1.79529923400818e+002°)
1.08392691402120e+003	(-9.16030895960701e+001dB,1.79528837948866e+002°)
1.08642562361706e+003	(-9.15630173832882e+001dB,1.79527749982100e+002°)
1.08893009333343e+003	(-9.15229448368868e+001dB,1.79526659494643e+002°)
1.09144033644875e+003	(-9.14828719553232e+001dB,1.79525566480593e+002°)
1.09395636627209e+003	(-9.14427987370474e+001dB,1.79524470934031e+002°)
1.09647819614318e+003	(-9.14027251805024e+001dB,1.79523372849039e+002°)
1.09900583943252e+003	(-9.13626512841242e+001dB,1.79522272219676e+002°)
1.10153930954141e+003	(-9.13225770463410e+001dB,1.79521169039966e+002°)
1.10407861990207e+003	(-9.12825024655742e+001dB,1.79520063303951e+002°)
1.10662378397766e+003	(-9.12424275402378e+001dB,1.79518955005667e+002°)
1.10917481526240e+003	(-9.12023522687381e+001dB,1.79517844139097e+002°)
1.11173172728159e+003	(-9.11622766494744e+001dB,1.79516730698219e+002°)
1.11429453359173e+003	(-9.11222006808386e+001dB,1.79515614677010e+002°)
1.11686324778056e+003	(-9.10821243612151e+001dB,1.79514496069439e+002°)
1.11943788346715e+003	(-9.10420476889804e+001dB,1.79513374869440e+002°)
1.12201845430196e+003	(-9.10019706625039e+001dB,1.79512251070936e+002°)
1.12460497396692e+003	(-9.09618932801475e+001dB,1.79511124667840e+002°)
1.12719745617551e+003	(-9.09218155402654e+001dB,1.79509995654073e+002°)
1.12979591467279e+003	(-9.08817374412040e+001dB,1.79508864023491e+002°)
1.13240036323555e+003	(-9.08416589813022e+001dB,1.79507729769987e+002°)
1.13501081567231e+003	(-9.08015801588912e+001dB,1.79506592887385e+002°)
1.13762728582343e+003	(-9.07615009722945e+001dB,1.79505453369569e+002°)
1.14024978756117e+003	(-9.07214214198275e+001dB,1.79504311210304e+002°)
1.14287833478977e+003	(-9.06813414997985e+001dB,1.79503166403451e+002°)
1.14551294144553e+003	(-9.06412612105075e+001dB,1.79502018942805e+002°)
1.14815362149688e+003	(-9.06011805502462e+001dB,1.79500868822108e+002°)
1.15080038894443e+003	(-9.05610995172993e+001dB,1.79499716035153e+002°)
1.15345325782109e+003	(-9.05210181099429e+001dB,1.79498560575670e+002°)
1.15611224219210e+003	(-9.04809363264452e+001dB,1.79497402437422e+002°)
1.15877735615512e+003	(-9.04408541650666e+001dB,1.79496241614102e+002°)
1.16144861384034e+003	(-9.04007716240593e+001dB,1.79495078099425e+002°)
1.16412602941049e+003	(-9.03606887016675e+001dB,1.79493911887079e+002°)
1.16680961706096e+003	(-9.03206053961271e+001dB,1.79492742970750e+002°)
1.16949939101987e+003	(-9.02805217056658e+001dB,1.79491571344078e+002°)
1.17219536554813e+003	(-9.02404376285034e+001dB,1.79490397000703e+002°)
1.17489755493953e+003	(-9.02003531628510e+001dB,1.79489219934263e+002°)
1.17760597352080e+003	(-9.01602683069117e+001dB,1.79488040138376e+002°)
1.18032063565173e+003	(-9.01201830588802e+001dB,1.79486857606631e+002°)
1.18304155572516e+003	(-9.00800974169429e+001dB,1.79485672332601e+002°)
1.18576874816716e+003	(-9.00400113792778e+001dB,1.79484484309844e+002°)
1.18850222743701e+003	(-8.99999249440542e+001dB,1.79483293531952e+002°)
1.19124200802737e+003	(-8.99598381094333e+001dB,1.79482099992417e+002°)
1.19398810446427e+003	(-8.99197508735675e+001dB,1.79480903684780e+002°)
1.19674053130724e+003	(-8.98796632346006e+001dB,1.79479704602542e+002°)
1.19949930314937e+003	(-8.98395751906681e+001dB,1.79478502739178e+002°)
1.20226443461741e+003	(-8.97994867398965e+001dB,1.79477298088150e+002°)
1.20503594037179e+003	(-8.97593978804039e+001dB,1.79476090642955e+002°)
1.20781383510678e+003	(-8.97193086102995e+001dB,1.79474880397009e+002°)
1.21059813355048e+003	(-8.96792189276837e+001dB,1.79473667343698e+002°)
1.21338885046497e+003	(-8.96391288306484e+001dB,1.79472451476487e+002°)
1.21618600064636e+003	(-8.95990383172762e+001dB,1.79471232788743e+002°)
1.21898959892486e+003	(-8.95589473856411e+001dB,1.79470011273838e+002°)
1.22179966016487e+003	(-8.95188560338082e+001dB,1.79468786925135e+002°)
1.22461619926504e+003	(-8.94787642598336e+001dB,1.79467559735972e+002°)
1.22743923115840e+003	(-8.94386720617641e+001dB,1.79466329699678e+002°)
1.23026877081238e+003	(-8.93985794376378e+001dB,1.79465096809571e+002°)
1.23310483322890e+003	(-8.93584863854836e+001dB,1.79463861058948e+002°)
1.23594743344450e+003	(-8.93183929033212e+001dB,1.79462622441081e+002°)
1.23879658653036e+003	(-8.92782989891612e+001dB,1.79461380949215e+002°)
1.24165230759241e+003	(-8.92382046410048e+001dB,1.79460136576624e+002°)
1.24451461177138e+003	(-8.91981098568441e+001dB,1.79458889316505e+002°)
1.24738351424294e+003	(-8.91580146346619e+001dB,1.79457639162082e+002°)
1.25025903021771e+003	(-8.91179189724316e+001dB,1.79456386106583e+002°)
1.25314117494141e+003	(-8.90778228681173e+001dB,1.79455130143150e+002°)
1.25602996369487e+003	(-8.90377263196733e+001dB,1.79453871264946e+002°)
1.25892541179416e+003	(-8.89976293250446e+001dB,1.79452609465121e+002°)
1.26182753459066e+003	(-8.89575318821670e+001dB,1.79451344736816e+002°)
1.26473634747115e+003	(-8.89174339889664e+001dB,1.79450077073145e+002°)
1.26765186585784e+003	(-8.88773356433590e+001dB,1.79448806467168e+002°)
1.27057410520854e+003	(-8.88372368432516e+001dB,1.79447532912009e+002°)
1.27350308101666e+003	(-8.87971375865411e+001dB,1.79446256400703e+002°)
1.27643880881134e+003	(-8.87570378711147e+001dB,1.79444976926296e+002°)
1.27938130415752e+003	(-8.87169376948499e+001dB,1.79443694481815e+002°)
1.28233058265601e+003	(-8.86768370556140e+001dB,1.79442409060270e+002°)
1.28528665994361e+003	(-8.86367359512649e+001dB,1.79441120654678e+002°)
1.28824955169313e+003	(-8.85966343796504e+001dB,1.79439829257983e+002°)
1.29121927361353e+003	(-8.85565323386079e+001dB,1.79438534863148e+002°)
1.29419584144998e+003	(-8.85164298259654e+001dB,1.79437237463131e+002°)
1.29717927098395e+003	(-8.84763268395405e+001dB,1.79435937050848e+002°)
1.30016957803328e+003	(-8.84362233771408e+001dB,1.79434633619209e+002°)
1.30316677845229e+003	(-8.83961194365633e+001dB,1.79433327161085e+002°)
1.30617088813183e+003	(-8.83560150155953e+001dB,1.79432017669383e+002°)
1.30918192299940e+003	(-8.83159101120139e+001dB,1.79430705136932e+002°)
1.31219989901920e+003	(-8.82758047235852e+001dB,1.79429389556565e+002°)
1.31522483219223e+003	(-8.82356988480657e+001dB,1.79428070921131e+002°)
1.31825673855640e+003	(-8.81955924832009e+001dB,1.79426749223384e+002°)
1.32129563418657e+003	(-8.81554856267263e+001dB,1.79425424456142e+002°)
1.32434153519466e+003	(-8.81153782763666e+001dB,1.79424096612186e+002°)
1.32739445772973e+003	(-8.80752704298361e+001dB,1.79422765684235e+002°)
1.33045441797808e+003	(-8.80351620848384e+001dB,1.79421431665024e+002°)
1.33352143216332e+003	(-8.79950532390665e+001dB,1.79420094547278e+002°)
1.33659551654643e+003	(-8.79549438902025e+001dB,1.79418754323679e+002°)
1.33967668742593e+003	(-8.79148340359181e+001dB,1.79417410986912e+002°)
1.34276496113786e+003	(-8.78747236738739e+001dB,1.79416064529631e+002°)
1.34586035405594e+003	(-8.78346128017198e+001dB,1.79414714944487e+002°)
1.34896288259165e+003	(-8.77945014170947e+001dB,1.79413362224095e+002°)
1.35207256319427e+003	(-8.77543895176265e+001dB,1.79412006361043e+002°)
1.35518941235103e+003	(-8.77142771009325e+001dB,1.79410647347954e+002°)
1.35831344658715e+003	(-8.76741641646182e+001dB,1.79409285177383e+002°)
1.36144468246594e+003	(-8.76340507062786e+001dB,1.79407919841866e+002°)
1.36458313658892e+003	(-8.75939367234973e+001dB,1.79406551333938e+002°)
1.36772882559584e+003	(-8.75538222138466e+001dB,1.79405179646115e+002°)
1.37088176616484e+003	(-8.75137071748878e+001dB,1.79403804770905e+002°)
1.37404197501251e+003	(-8.74735916041707e+001dB,1.79402426700773e+002°)
1.37720946889394e+003	(-8.74334754992339e+001dB,1.79401045428185e+002°)
1.38038426460288e+003	(-8.73933588576039e+001dB,1.79399660945544e+002°)
1.38356637897177e+003	(-8.73532416767968e+001dB,1.79398273245329e+002°)
1.38675582887188e+003	(-8.73131239543162e+001dB,1.79396882319877e+002°)
1.38995263121334e+003	(-8.72730056876548e+001dB,1.79395488161626e+002°)
1.39315680294529e+003	(-8.72328868742934e+001dB,1.79394090762921e+002°)
1.39636836105593e+003	(-8.71927675117007e+001dB,1.79392690116074e+002°)
1.39958732257261e+003	(-8.71526475973344e+001dB,1.79391286213480e+002°)
1.40281370456195e+003	(-8.71125271286400e+001dB,1.79389879047396e+002°)
1.40604752412990e+003	(-8.70724061030509e+001dB,1.79388468610101e+002°)
1.40928879842186e+003	(-8.70322845179891e+001dB,1.79387054893902e+002°)
1.41253754462274e+003	(-8.69921623708643e+001dB,1.79385637891029e+002°)
1.41579377995707e+003	(-8.69520396590742e+001dB,1.79384217593707e+002°)
1.41905752168908e+003	(-8.69119163800043e+001dB,1.79382793994162e+002°)
1.42232878712281e+003	(-8.68717925310284e+001dB,1.79381367084573e+002°)
1.42560759360218e+003	(-8.68316681095079e+001dB,1.79379936857140e+002°)
1.42889395851109e+003	(-8.67915431127915e+001dB,1.79378503303975e+002°)
1.43218789927353e+003	(-8.67514175382159e+001dB,1.79377066417242e+002°)
1.43548943335364e+003	(-8.67112913831060e+001dB,1.79375626189038e+002°)
1.43879857825583e+003	(-8.66711646447733e+001dB,1.79374182611468e+002°)
1.44211535152486e+003	(-8.66310373205174e+001dB,1.79372735676603e+002°)
1.44543977074592e+003	(-8.65909094076253e+001dB,1.79371285376501e+002°)
1.44877185354475e+003	(-8.65507809033712e+001dB,1.79369831703187e+002°)
1.45211161758773e+003	(-8.65106518050167e+001dB,1.79368374648697e+002°)
1.45545908058195e+003	(-8.64705221098111e+001dB,1.79366914205019e+002°)
1.45881426027534e+003	(-8.64303918149901e+001dB,1.79365450364123e+002°)
1.46217717445671e+003	(-8.63902609177774e+001dB,1.79363983117958e+002°)
1.46554784095590e+003	(-8.63501294153831e+001dB,1.79362512458467e+002°)
1.46892627764385e+003	(-8.63099973050049e+001dB,1.79361038377610e+002°)
1.47231250243271e+003	(-8.62698645838271e+001dB,1.79359560867193e+002°)
1.47570653327588e+003	(-8.62297312490211e+001dB,1.79358079919161e+002°)
1.47910838816819e+003	(-8.61895972977451e+001dB,1.79356595525341e+002°)
1.48251808514594e+003	(-8.61494627271441e+001dB,1.79355107677584e+002°)
1.48593564228699e+003	(-8.61093275343500e+001dB,1.79353616367707e+002°)
1.48936107771090e+003	(-8.60691917164809e+001dB,1.79352121587484e+002°)
1.49279440957898e+003	(-8.60290552706421e+001dB,1.79350623328692e+002°)
1.49623565609442e+003	(-8.59889181939251e+001dB,1.79349121583104e+002°)
1.49968483550236e+003	(-8.59487804834079e+001dB,1.79347616342427e+002°)
1.50314196609001e+003	(-8.59086421361550e+001dB,1.79346107598398e+002°)
1.50660706618673e+003	(-8.58685031492172e+001dB,1.79344595342697e+002°)
1.51008015416413e+003	(-8.58283635196317e+001dB,1.79343079566990e+002°)
1.51356124843619e+003	(-8.57882232444217e+001dB,1.79341560262931e+002°)
1.51705036745932e+003	(-8.57480823205970e+001dB,1.79340037422147e+002°)
1.52054752973248e+003	(-8.57079407451529e+001dB,1.79338511036251e+002°)
1.52405275379728e+003	(-8.56677985150714e+001dB,1.79336981096832e+002°)
1.52756605823806e+003	(-8.56276556273198e+001dB,1.79335447595442e+002°)
1.53108746168201e+003	(-8.55875120788519e+001dB,1.79333910523642e+002°)
1.53461698279928e+003	(-8.55473678666068e+001dB,1.79332369872934e+002°)
1.53815464030302e+003	(-8.55072229875097e+001dB,1.79330825634841e+002°)
1.54170045294954e+003	(-8.54670774384715e+001dB,1.79329277800833e+002°)
1.54525443953840e+003	(-8.54269312163888e+001dB,1.79327726362374e+002°)
1.54881661891247e+003	(-8.53867843181435e+001dB,1.79326171310899e+002°)
1.55238700995807e+003	(-8.53466367406032e+001dB,1.79324612637828e+002°)
1.55596563160506e+003	(-8.53064884806209e+001dB,1.79323050334560e+002°)
1.55955250282694e+003	(-8.52663395350349e+001dB,1.79321484392457e+002°)
1.56314764264094e+003	(-8.52261899006688e+001dB,1.79319914802874e+002°)
1.56675107010813e+003	(-8.51860395743317e+001dB,1.79318341557139e+002°)
1.57036280433354e+003	(-8.51458885528175e+001dB,1.79316764646569e+002°)
1.57398286446620e+003	(-8.51057368329054e+001dB,1.79315184062458e+002°)
1.57761126969933e+003	(-8.50655844113595e+001dB,1.79313599796054e+002°)
1.58124803927037e+003	(-8.50254312849289e+001dB,1.79312011838584e+002°)
1.58489319246110e+003	(-8.49852774503475e+001dB,1.79310420181303e+002°)
1.58854674859776e+003	(-8.49451229043344e+001dB,1.79308824815391e+002°)
1.59220872705115e+003	(-8.49049676435929e+001dB,1.79307225732028e+002°)
1.59587914723672e+003	(-8.48648116648110e+001dB,1.79305622922348e+002°)
1.59955802861465e+003	(-8.48246549646621e+001dB,1.79304016377524e+002°)
1.60324539069002e+003	(-8.47844975398031e+001dB,1.79302406088629e+002°)
1.60694125301286e+003	(-8.47443393868756e+001dB,1.79300792046754e+002°)
1.61064563517825e+003	(-8.47041805025063e+001dB,1.79299174242996e+002°)
1.61435855682647e+003	(-8.46640208833052e+001dB,1.79297552668352e+002°)
1.61808003764305e+003	(-8.46238605258672e+001dB,1.79295927313860e+002°)
1.62181009735891e+003	(-8.45836994267711e+001dB,1.79294298170523e+002°)
1.62554875575047e+003	(-8.45435375825797e+001dB,1.79292665229305e+002°)
1.62929603263970e+003	(-8.45033749898400e+001dB,1.79291028481152e+002°)
1.63305194789432e+003	(-8.44632116450830e+001dB,1.79289387917003e+002°)
1.63681652142779e+003	(-8.44230475448232e+001dB,1.79287743527754e+002°)
1.64058977319952e+003	(-8.43828826855594e+001dB,1.79286095304284e+002°)
1.64437172321491e+003	(-8.43427170637734e+001dB,1.79284443237471e+002°)
1.64816239152549e+003	(-8.43025506759314e+001dB,1.79282787318114e+002°)
1.65196179822900e+003	(-8.42623835184826e+001dB,1.79281127537065e+002°)
1.65576996346951e+003	(-8.42222155878599e+001dB,1.79279463885077e+002°)
1.65958690743754e+003	(-8.41820468804796e+001dB,1.79277796352958e+002°)
1.66341265037015e+003	(-8.41418773927412e+001dB,1.79276124931399e+002°)
1.66724721255104e+003	(-8.41017071210278e+001dB,1.79274449611153e+002°)
1.67109061431069e+003	(-8.40615360617049e+001dB,1.79272770382899e+002°)
1.67494287602642e+003	(-8.40213642111219e+001dB,1.79271087237313e+002°)
1.67880401812254e+003	(-8.39811915656108e+001dB,1.79269400165044e+002°)
1.68267406107045e+003	(-8.39410181214867e+001dB,1.79267709156701e+002°)
1.68655302538872e+003	(-8.39008438750473e+001dB,1.79266014202916e+002°)
1.69044093164324e+003	(-8.38606688225732e+001dB,1.79264315294232e+002°)
1.69433780044731e+003	(-8.38204929603278e+001dB,1.79262612421219e+002°)
1.69824365246172e+003	(-8.37803162845569e+001dB,1.79260905574392e+002°)
1.70215850839493e+003	(-8.37401387914890e+001dB,1.79259194744258e+002°)
1.70608238900310e+003	(-8.36999604773348e+001dB,1.79257479921301e+002°)
1.71001531509027e+003	(-8.36597813382876e+001dB,1.79255761095971e+002°)
1.71395730750840e+003	(-8.36196013705229e+001dB,1.79254038258697e+002°)
1.71790838715757e+003	(-8.35794205701984e+001dB,1.79252311399888e+002°)
1.72186857498598e+003	(-8.35392389334539e+001dB,1.79250580509935e+002°)
1.72583789199018e+003	(-8.34990564564107e+001dB,1.79248845579160e+002°)
1.72981635921508e+003	(-8.34588731351732e+001dB,1.79247106597934e+002°)
1.73380399775412e+003	(-8.34186889658267e+001dB,1.79245363556551e+002°)
1.73780082874935e+003	(-8.33785039444385e+001dB,1.79243616445279e+002°)
1.74180687339159e+003	(-8.33383180670576e+001dB,1.79241865254385e+002°)
1.74582215292048e+003	(-8.32981313297149e+001dB,1.79240109974112e+002°)
1.74984668862463e+003	(-8.32579437284221e+001dB,1.79238350594663e+002°)
1.75388050184174e+003	(-8.32177552591732e+001dB,1.79236587106216e+002°)
1.75792361395867e+003	(-8.31775659179426e+001dB,1.79234819498911e+002°)
1.76197604641161e+003	(-8.31373757006869e+001dB,1.79233047762907e+002°)
1.76603782068614e+003	(-8.30971846033432e+001dB,1.79231271888311e+002°)
1.77010895831740e+003	(-8.30569926218298e+001dB,1.79229491865181e+002°)
1.77418948089014e+003	(-8.30167997520461e+001dB,1.79227707683583e+002°)
1.77827941003890e+003	(-8.29766059898723e+001dB,1.79225919333555e+002°)
1.78237876744807e+003	(-8.29364113311695e+001dB,1.79224126805088e+002°)
1.78648757485203e+003	(-8.28962157717794e+001dB,1.79222330088167e+002°)
1.79060585403527e+003	(-8.28560193075242e+001dB,1.79220529172747e+002°)
1.79473362683250e+003	(-8.28158219342071e+001dB,1.79218724048747e+002°)
1.79887091512876e+003	(-8.27756236476113e+001dB,1.79216914706088e+002°)
1.80301774085954e+003	(-8.27354244435004e+001dB,1.79215101134611e+002°)
1.80717412601090e+003	(-8.26952243176184e+001dB,1.79213283324181e+002°)
1.81134009261958e+003	(-8.26550232656894e+001dB,1.79211461264642e+002°)
1.81551566277311e+003	(-8.26148212834174e+001dB,1.79209634945757e+002°)
1.81970085860996e+003	(-8.25746183664867e+001dB,1.79207804357303e+002°)
1.82389570231961e+003	(-8.25344145105613e+001dB,1.79205969489039e+002°)
1.82810021614272e+003	(-8.24942097112850e+001dB,1.79204130330667e+002°)
1.83231442237119e+003	(-8.24540039642811e+001dB,1.79202286871888e+002°)
1.83653834334832e+003	(-8.24137972651527e+001dB,1.79200439102344e+002°)
1.84077200146893e+003	(-8.23735896094826e+001dB,1.79198587011695e+002°)
1.84501541917945e+003	(-8.23333809928326e+001dB,1.79196730589540e+002°)
1.84926861897805e+003	(-8.22931714107439e+001dB,1.79194869825465e+002°)
1.85353162341478e+003	(-8.22529608587370e+001dB,1.79193004709013e+002°)
1.85780445509167e+003	(-8.22127493323116e+001dB,1.79191135229727e+002°)
1.86208713666284e+003	(-8.21725368269463e+001dB,1.79189261377116e+002°)
1.86637969083464e+003	(-8.21323233380983e+001dB,1.79187383140629e+002°)
1.87068214036577e+003	(-8.20921088612043e+001dB,1.79185500509730e+002°)
1.87499450806739e+003	(-8.20518933916791e+001dB,1.79183613473828e+002°)
1.87931681680324e+003	(-8.20116769249163e+001dB,1.79181722022330e+002°)
1.88364908948977e+003	(-8.19714594562882e+001dB,1.79179826144584e+002°)
1.88799134909627e+003	(-8.19312409811453e+001dB,1.79177925829934e+002°)
