Freq.	V(n003)
Step Information: 1=1  (Run: 1/11)
1.00000000000000e+003	(-9.37534261127913e+001dB,1.79518496720667e+002°)
1.00230523807790e+003	(-9.37133664777487e+001dB,1.79517385188158e+002°)
1.00461579027840e+003	(-9.36733065672399e+001dB,1.79516271082530e+002°)
1.00693166885180e+003	(-9.36332463799919e+001dB,1.79515154397738e+002°)
1.00925288607668e+003	(-9.35931859147252e+001dB,1.79514035127824e+002°)
1.01157945425990e+003	(-9.35531251701546e+001dB,1.79512913266724e+002°)
1.01391138573668e+003	(-9.35130641449891e+001dB,1.79511788808398e+002°)
1.01624869287070e+003	(-9.34730028379315e+001dB,1.79510661746769e+002°)
1.01859138805412e+003	(-9.34329412476785e+001dB,1.79509532075749e+002°)
1.02093948370768e+003	(-9.33928793729211e+001dB,1.79508399789275e+002°)
1.02329299228075e+003	(-9.33528172123442e+001dB,1.79507264881221e+002°)
1.02565192625141e+003	(-9.33127547646264e+001dB,1.79506127345463e+002°)
1.02801629812647e+003	(-9.32726920284402e+001dB,1.79504987175851e+002°)
1.03038612044162e+003	(-9.32326290024521e+001dB,1.79503844366275e+002°)
1.03276140576140e+003	(-9.31925656853223e+001dB,1.79502698910532e+002°)
1.03514216667934e+003	(-9.31525020757050e+001dB,1.79501550802474e+002°)
1.03752841581801e+003	(-9.31124381722477e+001dB,1.79500400035859e+002°)
1.03992016582906e+003	(-9.30723739735924e+001dB,1.79499246604511e+002°)
1.04231742939330e+003	(-9.30323094783739e+001dB,1.79498090502193e+002°)
1.04472021922080e+003	(-9.29922446852214e+001dB,1.79496931722648e+002°)
1.04712854805090e+003	(-9.29521795927576e+001dB,1.79495770259649e+002°)
1.04954242865232e+003	(-9.29121141995984e+001dB,1.79494606106917e+002°)
1.05196187382322e+003	(-9.28720485043539e+001dB,1.79493439258149e+002°)
1.05438689639126e+003	(-9.28319825056275e+001dB,1.79492269707067e+002°)
1.05681750921366e+003	(-9.27919162020158e+001dB,1.79491097447355e+002°)
1.05925372517729e+003	(-9.27518495921095e+001dB,1.79489922472671e+002°)
1.06169555719872e+003	(-9.27117826744924e+001dB,1.79488744776655e+002°)
1.06414301822431e+003	(-9.26717154477417e+001dB,1.79487564352964e+002°)
1.06659612123026e+003	(-9.26316479104282e+001dB,1.79486381195207e+002°)
1.06905487922266e+003	(-9.25915800611162e+001dB,1.79485195297017e+002°)
1.07151930523761e+003	(-9.25515118983630e+001dB,1.79484006651972e+002°)
1.07398941234124e+003	(-9.25114434207194e+001dB,1.79482815253646e+002°)
1.07646521362983e+003	(-9.24713746267294e+001dB,1.79481621095601e+002°)
1.07894672222983e+003	(-9.24313055149305e+001dB,1.79480424171387e+002°)
1.08143395129794e+003	(-9.23912360838530e+001dB,1.79479224474519e+002°)
1.08392691402120e+003	(-9.23511663320210e+001dB,1.79478021998547e+002°)
1.08642562361706e+003	(-9.23110962579511e+001dB,1.79476816736935e+002°)
1.08893009333343e+003	(-9.22710258601535e+001dB,1.79475608683184e+002°)
1.09144033644875e+003	(-9.22309551371313e+001dB,1.79474397830744e+002°)
1.09395636627209e+003	(-9.21908840873809e+001dB,1.79473184173106e+002°)
1.09647819614318e+003	(-9.21508127093913e+001dB,1.79471967703692e+002°)
1.09900583943252e+003	(-9.21107410016447e+001dB,1.79470748415872e+002°)
1.10153930954141e+003	(-9.20706689626165e+001dB,1.79469526303123e+002°)
1.10407861990207e+003	(-9.20305965907747e+001dB,1.79468301358787e+002°)
1.10662378397766e+003	(-9.19905238845806e+001dB,1.79467073576284e+002°)
1.10917481526240e+003	(-9.19504508424878e+001dB,1.79465842948896e+002°)
1.11173172728159e+003	(-9.19103774629434e+001dB,1.79464609470046e+002°)
1.11429453359173e+003	(-9.18703037443867e+001dB,1.79463373133015e+002°)
1.11686324778056e+003	(-9.18302296852502e+001dB,1.79462133931110e+002°)
1.11943788346715e+003	(-9.17901552839589e+001dB,1.79460891857636e+002°)
1.12201845430196e+003	(-9.17500805389308e+001dB,1.79459646905883e+002°)
1.12460497396692e+003	(-9.17100054485760e+001dB,1.79458399069079e+002°)
1.12719745617551e+003	(-9.16699300112977e+001dB,1.79457148340480e+002°)
1.12979591467279e+003	(-9.16298542254918e+001dB,1.79455894713331e+002°)
1.13240036323555e+003	(-9.15897780895462e+001dB,1.79454638180826e+002°)
1.13501081567231e+003	(-9.15497016018421e+001dB,1.79453378736179e+002°)
1.13762728582343e+003	(-9.15096247607525e+001dB,1.79452116372545e+002°)
1.14024978756117e+003	(-9.14695475646431e+001dB,1.79450851083087e+002°)
1.14287833478977e+003	(-9.14294700118724e+001dB,1.79449582860972e+002°)
1.14551294144553e+003	(-9.13893921007908e+001dB,1.79448311699315e+002°)
1.14815362149688e+003	(-9.13493138297411e+001dB,1.79447037591216e+002°)
1.15080038894443e+003	(-9.13092351970589e+001dB,1.79445760529826e+002°)
1.15345325782109e+003	(-9.12691562010713e+001dB,1.79444480508156e+002°)
1.15611224219210e+003	(-9.12290768400983e+001dB,1.79443197519292e+002°)
1.15877735615512e+003	(-9.11889971124519e+001dB,1.79441911556306e+002°)
1.16144861384034e+003	(-9.11489170164363e+001dB,1.79440622612171e+002°)
1.16412602941049e+003	(-9.11088365503479e+001dB,1.79439330679984e+002°)
1.16680961706096e+003	(-9.10687557124749e+001dB,1.79438035752655e+002°)
1.16949939101987e+003	(-9.10286745010979e+001dB,1.79436737823192e+002°)
1.17219536554813e+003	(-9.09885929144895e+001dB,1.79435436884590e+002°)
1.17489755493953e+003	(-9.09485109509142e+001dB,1.79434132929740e+002°)
1.17760597352080e+003	(-9.09084286086285e+001dB,1.79432825951610e+002°)
1.18032063565173e+003	(-9.08683458858806e+001dB,1.79431515943085e+002°)
1.18304155572516e+003	(-9.08282627809110e+001dB,1.79430202897077e+002°)
1.18576874816716e+003	(-9.07881792919518e+001dB,1.79428886806436e+002°)
1.18850222743701e+003	(-9.07480954172269e+001dB,1.79427567664045e+002°)
1.19124200802737e+003	(-9.07080111549518e+001dB,1.79426245462730e+002°)
1.19398810446427e+003	(-9.06679265033341e+001dB,1.79424920195315e+002°)
1.19674053130724e+003	(-9.06278414605731e+001dB,1.79423591854603e+002°)
1.19949930314937e+003	(-9.05877560248593e+001dB,1.79422260433416e+002°)
1.20226443461741e+003	(-9.05476701943752e+001dB,1.79420925924471e+002°)
1.20503594037179e+003	(-9.05075839672948e+001dB,1.79419588320574e+002°)
1.20781383510678e+003	(-9.04674973417833e+001dB,1.79418247614420e+002°)
1.21059813355048e+003	(-9.04274103159983e+001dB,1.79416903798761e+002°)
1.21338885046497e+003	(-9.03873228880876e+001dB,1.79415556866271e+002°)
1.21618600064636e+003	(-9.03472350561915e+001dB,1.79414206809651e+002°)
1.21898959892486e+003	(-9.03071468184409e+001dB,1.79412853621537e+002°)
1.22179966016487e+003	(-9.02670581729587e+001dB,1.79411497294608e+002°)
1.22461619926504e+003	(-9.02269691178586e+001dB,1.79410137821494e+002°)
1.22743923115840e+003	(-9.01868796512458e+001dB,1.79408775194782e+002°)
1.23026877081238e+003	(-9.01467897712166e+001dB,1.79407409407076e+002°)
1.23310483322890e+003	(-9.01066994758586e+001dB,1.79406040450962e+002°)
1.23594743344450e+003	(-9.00666087632503e+001dB,1.79404668318994e+002°)
1.23879658653036e+003	(-9.00265176314616e+001dB,1.79403293003705e+002°)
1.24165230759241e+003	(-8.99864260785532e+001dB,1.79401914497610e+002°)
1.24451461177138e+003	(-8.99463341025769e+001dB,1.79400532793204e+002°)
1.24738351424294e+003	(-8.99062417015758e+001dB,1.79399147883038e+002°)
1.25025903021771e+003	(-8.98661488735830e+001dB,1.79397759759487e+002°)
1.25314117494141e+003	(-8.98260556166235e+001dB,1.79396368415053e+002°)
1.25602996369487e+003	(-8.97859619287125e+001dB,1.79394973842134e+002°)
1.25892541179416e+003	(-8.97458678078564e+001dB,1.79393576033174e+002°)
1.26182753459066e+003	(-8.97057732520521e+001dB,1.79392174980551e+002°)
1.26473634747115e+003	(-8.96656782592875e+001dB,1.79390770676631e+002°)
1.26765186585784e+003	(-8.96255828275404e+001dB,1.79389363113789e+002°)
1.27057410520854e+003	(-8.95854869547804e+001dB,1.79387952284356e+002°)
1.27350308101666e+003	(-8.95453906389665e+001dB,1.79386538180630e+002°)
1.27643880881134e+003	(-8.95052938780492e+001dB,1.79385120794922e+002°)
1.27938130415752e+003	(-8.94651966699690e+001dB,1.79383700119524e+002°)
1.28233058265601e+003	(-8.94250990126567e+001dB,1.79382276146690e+002°)
1.28528665994361e+003	(-8.93850009040341e+001dB,1.79380848868656e+002°)
1.28824955169313e+003	(-8.93449023420126e+001dB,1.79379418277645e+002°)
1.29121927361353e+003	(-8.93048033244946e+001dB,1.79377984365867e+002°)
1.29419584144998e+003	(-8.92647038493725e+001dB,1.79376547125516e+002°)
1.29717927098395e+003	(-8.92246039145287e+001dB,1.79375106548746e+002°)
1.30016957803328e+003	(-8.91845035178362e+001dB,1.79373662627714e+002°)
1.30316677845229e+003	(-8.91444026571578e+001dB,1.79372215354527e+002°)
1.30617088813183e+003	(-8.91043013303464e+001dB,1.79370764721326e+002°)
1.30918192299940e+003	(-8.90641995352454e+001dB,1.79369310720176e+002°)
1.31219989901920e+003	(-8.90240972696874e+001dB,1.79367853343151e+002°)
1.31522483219223e+003	(-8.89839945314956e+001dB,1.79366392582319e+002°)
1.31825673855640e+003	(-8.89438913184831e+001dB,1.79364928429677e+002°)
1.32129563418657e+003	(-8.89037876284522e+001dB,1.79363460877273e+002°)
1.32434153519466e+003	(-8.88636834591957e+001dB,1.79361989917072e+002°)
1.32739445772973e+003	(-8.88235788084959e+001dB,1.79360515541076e+002°)
1.33045441797808e+003	(-8.87834736741248e+001dB,1.79359037741203e+002°)
1.33352143216332e+003	(-8.87433680538440e+001dB,1.79357556509392e+002°)
1.33659551654643e+003	(-8.87032619454048e+001dB,1.79356071837586e+002°)
1.33967668742593e+003	(-8.86631553465482e+001dB,1.79354583717656e+002°)
1.34276496113786e+003	(-8.86230482550045e+001dB,1.79353092141464e+002°)
1.34586035405594e+003	(-8.85829406684935e+001dB,1.79351597100890e+002°)
1.34896288259165e+003	(-8.85428325847245e+001dB,1.79350098587741e+002°)
1.35207256319427e+003	(-8.85027240013961e+001dB,1.79348596593849e+002°)
1.35518941235103e+003	(-8.84626149161965e+001dB,1.79347091111018e+002°)
1.35831344658715e+003	(-8.84225053268024e+001dB,1.79345582130971e+002°)
1.36144468246594e+003	(-8.83823952308808e+001dB,1.79344069645508e+002°)
1.36458313658892e+003	(-8.83422846260870e+001dB,1.79342553646348e+002°)
1.36772882559584e+003	(-8.83021735100658e+001dB,1.79341034125211e+002°)
1.37088176616484e+003	(-8.82620618804510e+001dB,1.79339511073778e+002°)
1.37404197501251e+003	(-8.82219497348655e+001dB,1.79337984483716e+002°)
1.37720946889394e+003	(-8.81818370709211e+001dB,1.79336454346673e+002°)
1.38038426460288e+003	(-8.81417238862182e+001dB,1.79334920654281e+002°)
1.38356637897177e+003	(-8.81016101783469e+001dB,1.79333383398185e+002°)
1.38675582887188e+003	(-8.80614959448853e+001dB,1.79331842569932e+002°)
1.38995263121334e+003	(-8.80213811834004e+001dB,1.79330298161093e+002°)
1.39315680294529e+003	(-8.79812658914482e+001dB,1.79328750163227e+002°)
1.39636836105593e+003	(-8.79411500665733e+001dB,1.79327198567863e+002°)
1.39958732257261e+003	(-8.79010337063085e+001dB,1.79325643366487e+002°)
1.40281370456195e+003	(-8.78609168081758e+001dB,1.79324084550597e+002°)
1.40604752412990e+003	(-8.78207993696853e+001dB,1.79322522111677e+002°)
1.40928879842186e+003	(-8.77806813883352e+001dB,1.79320956041108e+002°)
1.41253754462274e+003	(-8.77405628616129e+001dB,1.79319386330390e+002°)
1.41579377995707e+003	(-8.77004437869936e+001dB,1.79317812970869e+002°)
1.41905752168908e+003	(-8.76603241619409e+001dB,1.79316235953940e+002°)
1.42232878712281e+003	(-8.76202039839065e+001dB,1.79314655270951e+002°)
1.42560759360218e+003	(-8.75800832503304e+001dB,1.79313070913247e+002°)
1.42889395851109e+003	(-8.75399619586407e+001dB,1.79311482872138e+002°)
1.43218789927353e+003	(-8.74998401062537e+001dB,1.79309891138918e+002°)
1.43548943335364e+003	(-8.74597176905734e+001dB,1.79308295704858e+002°)
1.43879857825583e+003	(-8.74195947089918e+001dB,1.79306696561212e+002°)
1.44211535152486e+003	(-8.73794711588891e+001dB,1.79305093699197e+002°)
1.44543977074592e+003	(-8.73393470376330e+001dB,1.79303487110043e+002°)
1.44877185354475e+003	(-8.72992223425791e+001dB,1.79301876784885e+002°)
1.45211161758773e+003	(-8.72590970710709e+001dB,1.79300262714942e+002°)
1.45545908058195e+003	(-8.72189712204391e+001dB,1.79298644891332e+002°)
1.45881426027534e+003	(-8.71788447880024e+001dB,1.79297023305162e+002°)
1.46217717445671e+003	(-8.71387177710668e+001dB,1.79295397947531e+002°)
1.46554784095590e+003	(-8.70985901669262e+001dB,1.79293768809533e+002°)
1.46892627764385e+003	(-8.70584619728615e+001dB,1.79292135882206e+002°)
1.47231250243271e+003	(-8.70183331861410e+001dB,1.79290499156567e+002°)
1.47570653327588e+003	(-8.69782038040206e+001dB,1.79288858623648e+002°)
1.47910838816819e+003	(-8.69380738237430e+001dB,1.79287214274418e+002°)
1.48251808514594e+003	(-8.68979432425388e+001dB,1.79285566099842e+002°)
1.48593564228699e+003	(-8.68578120576249e+001dB,1.79283914090858e+002°)
1.48936107771090e+003	(-8.68176802662059e+001dB,1.79282258238396e+002°)
1.49279440957898e+003	(-8.67775478654732e+001dB,1.79280598533356e+002°)
1.49623565609442e+003	(-8.67374148526049e+001dB,1.79278934966573e+002°)
1.49968483550236e+003	(-8.66972812247666e+001dB,1.79277267528924e+002°)
1.50314196609001e+003	(-8.66571469791100e+001dB,1.79275596211234e+002°)
1.50660706618673e+003	(-8.66170121127742e+001dB,1.79273921004301e+002°)
1.51008015416413e+003	(-8.65768766228845e+001dB,1.79272241898921e+002°)
1.51356124843619e+003	(-8.65367405065533e+001dB,1.79270558885834e+002°)
1.51705036745932e+003	(-8.64966037608793e+001dB,1.79268871955774e+002°)
1.52054752973248e+003	(-8.64564663829476e+001dB,1.79267181099464e+002°)
1.52405275379728e+003	(-8.64163283698301e+001dB,1.79265486307590e+002°)
1.52756605823806e+003	(-8.63761897185850e+001dB,1.79263787570808e+002°)
1.53108746168201e+003	(-8.63360504262565e+001dB,1.79262084879770e+002°)
1.53461698279928e+003	(-8.62959104898754e+001dB,1.79260378225077e+002°)
1.53815464030302e+003	(-8.62557699064587e+001dB,1.79258667597349e+002°)
1.54170045294954e+003	(-8.62156286730097e+001dB,1.79256952987166e+002°)
1.54525443953840e+003	(-8.61754867865168e+001dB,1.79255234385015e+002°)
1.54881661891247e+003	(-8.61353442439558e+001dB,1.79253511781486e+002°)
1.55238700995807e+003	(-8.60952010422876e+001dB,1.79251785167038e+002°)
1.55596563160506e+003	(-8.60550571784589e+001dB,1.79250054532166e+002°)
1.55955250282694e+003	(-8.60149126494028e+001dB,1.79248319867324e+002°)
1.56314764264094e+003	(-8.59747674520374e+001dB,1.79246581162920e+002°)
1.56675107010813e+003	(-8.59346215832672e+001dB,1.79244838409383e+002°)
1.57036280433354e+003	(-8.58944750399819e+001dB,1.79243091597082e+002°)
1.57398286446620e+003	(-8.58543278190566e+001dB,1.79241340716376e+002°)
1.57761126969933e+003	(-8.58141799173523e+001dB,1.79239585757598e+002°)
1.58124803927037e+003	(-8.57740313317152e+001dB,1.79237826711047e+002°)
1.58489319246110e+003	(-8.57338820589768e+001dB,1.79236063567009e+002°)
1.58854674859776e+003	(-8.56937320959537e+001dB,1.79234296315742e+002°)
1.59220872705115e+003	(-8.56535814394482e+001dB,1.79232524947489e+002°)
1.59587914723672e+003	(-8.56134300862472e+001dB,1.79230749452472e+002°)
1.59955802861465e+003	(-8.55732780331229e+001dB,1.79228969820830e+002°)
1.60324539069002e+003	(-8.55331252768325e+001dB,1.79227186042776e+002°)
1.60694125301286e+003	(-8.54929718141182e+001dB,1.79225398108412e+002°)
1.61064563517825e+003	(-8.54528176417068e+001dB,1.79223606007853e+002°)
1.61435855682647e+003	(-8.54126627563100e+001dB,1.79221809731185e+002°)
1.61808003764305e+003	(-8.53725071546244e+001dB,1.79220009268486e+002°)
1.62181009735891e+003	(-8.53323508333309e+001dB,1.79218204609768e+002°)
1.62554875575047e+003	(-8.52921937890952e+001dB,1.79216395745060e+002°)
1.62929603263970e+003	(-8.52520360185672e+001dB,1.79214582664323e+002°)
1.63305194789432e+003	(-8.52118775183817e+001dB,1.79212765357552e+002°)
1.63681652142779e+003	(-8.51717182851575e+001dB,1.79210943814665e+002°)
1.64058977319952e+003	(-8.51315583154977e+001dB,1.79209118025545e+002°)
1.64437172321491e+003	(-8.50913976059896e+001dB,1.79207287980123e+002°)
1.64816239152549e+003	(-8.50512361532047e+001dB,1.79205453668213e+002°)
1.65196179822900e+003	(-8.50110739536985e+001dB,1.79203615079665e+002°)
1.65576996346951e+003	(-8.49709110040106e+001dB,1.79201772204306e+002°)
1.65958690743754e+003	(-8.49307473006641e+001dB,1.79199925031888e+002°)
1.66341265037015e+003	(-8.48905828401665e+001dB,1.79198073552173e+002°)
1.66724721255104e+003	(-8.48504176190087e+001dB,1.79196217754893e+002°)
1.67109061431069e+003	(-8.48102516336653e+001dB,1.79194357629748e+002°)
1.67494287602642e+003	(-8.47700848805944e+001dB,1.79192493166408e+002°)
1.67880401812254e+003	(-8.47299173562379e+001dB,1.79190624354542e+002°)
1.68267406107045e+003	(-8.46897490570209e+001dB,1.79188751183756e+002°)
1.68655302538872e+003	(-8.46495799793520e+001dB,1.79186873643655e+002°)
1.69044093164324e+003	(-8.46094101196229e+001dB,1.79184991723799e+002°)
1.69433780044731e+003	(-8.45692394742088e+001dB,1.79183105413756e+002°)
1.69824365246172e+003	(-8.45290680394677e+001dB,1.79181214703018e+002°)
1.70215850839493e+003	(-8.44888958117411e+001dB,1.79179319581108e+002°)
1.70608238900310e+003	(-8.44487227873526e+001dB,1.79177420037449e+002°)
1.71001531509027e+003	(-8.44085489626100e+001dB,1.79175516061527e+002°)
1.71395730750840e+003	(-8.43683743338026e+001dB,1.79173607642709e+002°)
1.71790838715757e+003	(-8.43281988972032e+001dB,1.79171694770392e+002°)
1.72186857498598e+003	(-8.42880226490671e+001dB,1.79169777433927e+002°)
1.72583789199018e+003	(-8.42478455856321e+001dB,1.79167855622677e+002°)
1.72981635921508e+003	(-8.42076677031184e+001dB,1.79165929325900e+002°)
1.73380399775412e+003	(-8.41674889977288e+001dB,1.79163998532902e+002°)
1.73780082874935e+003	(-8.41273094656484e+001dB,1.79162063232914e+002°)
1.74180687339159e+003	(-8.40871291030441e+001dB,1.79160123415160e+002°)
1.74582215292048e+003	(-8.40469479060657e+001dB,1.79158179068836e+002°)
1.74984668862463e+003	(-8.40067658708443e+001dB,1.79156230183100e+002°)
1.75388050184174e+003	(-8.39665829934937e+001dB,1.79154276747094e+002°)
1.75792361395867e+003	(-8.39263992701092e+001dB,1.79152318749931e+002°)
1.76197604641161e+003	(-8.38862146967677e+001dB,1.79150356180679e+002°)
1.76603782068614e+003	(-8.38460292695284e+001dB,1.79148389028396e+002°)
1.77010895831740e+003	(-8.38058429844316e+001dB,1.79146417282124e+002°)
1.77418948089014e+003	(-8.37656558374996e+001dB,1.79144440930831e+002°)
1.77827941003890e+003	(-8.37254678247358e+001dB,1.79142459963502e+002°)
1.78237876744807e+003	(-8.36852789421254e+001dB,1.79140474369087e+002°)
1.78648757485203e+003	(-8.36450891856342e+001dB,1.79138484136478e+002°)
1.79060585403527e+003	(-8.36048985512101e+001dB,1.79136489254567e+002°)
1.79473362683250e+003	(-8.35647070347814e+001dB,1.79134489712203e+002°)
1.79887091512876e+003	(-8.35245146322577e+001dB,1.79132485498227e+002°)
1.80301774085954e+003	(-8.34843213395297e+001dB,1.79130476601424e+002°)
1.80717412601090e+003	(-8.34441271524686e+001dB,1.79128463010565e+002°)
1.81134009261958e+003	(-8.34039320669268e+001dB,1.79126444714405e+002°)
1.81551566277311e+003	(-8.33637360787369e+001dB,1.79124421701610e+002°)
1.81970085860996e+003	(-8.33235391837124e+001dB,1.79122393960909e+002°)
1.82389570231961e+003	(-8.32833413776472e+001dB,1.79120361480937e+002°)
1.82810021614272e+003	(-8.32431426563156e+001dB,1.79118324250310e+002°)
1.83231442237119e+003	(-8.32029430154721e+001dB,1.79116282257636e+002°)
1.83653834334832e+003	(-8.31627424508516e+001dB,1.79114235491472e+002°)
1.84077200146893e+003	(-8.31225409581688e+001dB,1.79112183940335e+002°)
1.84501541917945e+003	(-8.30823385331190e+001dB,1.79110127592760e+002°)
1.84926861897805e+003	(-8.30421351713769e+001dB,1.79108066437205e+002°)
1.85353162341478e+003	(-8.30019308685970e+001dB,1.79106000462110e+002°)
1.85780445509167e+003	(-8.29617256204141e+001dB,1.79103929655909e+002°)
1.86208713666284e+003	(-8.29215194224420e+001dB,1.79101854006966e+002°)
1.86637969083464e+003	(-8.28813122702747e+001dB,1.79099773503654e+002°)
1.87068214036577e+003	(-8.28411041594850e+001dB,1.79097688134285e+002°)
1.87499450806739e+003	(-8.28008950856256e+001dB,1.79095597887166e+002°)
1.87931681680324e+003	(-8.27606850442280e+001dB,1.79093502750548e+002°)
1.88364908948977e+003	(-8.27204740308031e+001dB,1.79091402712674e+002°)
1.88799134909627e+003	(-8.26802620408411e+001dB,1.79089297761746e+002°)
