Freq.	V(n001)
Step Information: 1=1  (Run: 1/11)
1.00000000000000e+003	(-4.57207591082258e+001dB,-9.02407666541602e+001°)
1.00230523807790e+003	(-4.57007268795001e+001dB,-9.02413225180075e+001°)
1.00461579027840e+003	(-4.56806945018953e+001dB,-9.02418796690625e+001°)
1.00693166885180e+003	(-4.56606619747233e+001dB,-9.02424381103738e+001°)
1.00925288607668e+003	(-4.56406292972922e+001dB,-9.02429978449001e+001°)
1.01157945425990e+003	(-4.56205964689076e+001dB,-9.02435588757265e+001°)
1.01391138573668e+003	(-4.56005634888714e+001dB,-9.02441212058233e+001°)
1.01624869287070e+003	(-4.55805303564830e+001dB,-9.02446848382714e+001°)
1.01859138805412e+003	(-4.55604970710373e+001dB,-9.02452497760939e+001°)
1.02093948370768e+003	(-4.55404636318271e+001dB,-9.02458160223468e+001°)
1.02329299228075e+003	(-4.55204300381415e+001dB,-9.02463835800799e+001°)
1.02565192625141e+003	(-4.55003962892662e+001dB,-9.02469524523654e+001°)
1.02801629812647e+003	(-4.54803623844836e+001dB,-9.02475226423013e+001°)
1.03038612044162e+003	(-4.54603283230730e+001dB,-9.02480941529455e+001°)
1.03276140576140e+003	(-4.54402941043101e+001dB,-9.02486669873667e+001°)
1.03514216667934e+003	(-4.54202597274675e+001dB,-9.02492411486961e+001°)
1.03752841581801e+003	(-4.54002251918144e+001dB,-9.02498166399999e+001°)
1.03992016582906e+003	(-4.53801904966163e+001dB,-9.02503934644286e+001°)
1.04231742939330e+003	(-4.53601556411355e+001dB,-9.02509716250670e+001°)
1.04472021922080e+003	(-4.53401206246311e+001dB,-9.02515511250689e+001°)
1.04712854805090e+003	(-4.53200854463585e+001dB,-9.02521319675358e+001°)
1.04954242865232e+003	(-4.53000501055696e+001dB,-9.02527141556555e+001°)
1.05196187382322e+003	(-4.52800146015131e+001dB,-9.02532976925300e+001°)
1.05438689639126e+003	(-4.52599789334340e+001dB,-9.02538825813421e+001°)
1.05681750921366e+003	(-4.52399431005739e+001dB,-9.02544688252204e+001°)
1.05925372517729e+003	(-4.52199071021709e+001dB,-9.02550564273818e+001°)
1.06169555719872e+003	(-4.51998709374596e+001dB,-9.02556453909702e+001°)
1.06414301822431e+003	(-4.51798346056707e+001dB,-9.02562357192025e+001°)
1.06659612123026e+003	(-4.51597981060319e+001dB,-9.02568274152310e+001°)
1.06905487922266e+003	(-4.51397614377670e+001dB,-9.02574204822892e+001°)
1.07151930523761e+003	(-4.51197246000963e+001dB,-9.02580149235677e+001°)
1.07398941234124e+003	(-4.50996875922363e+001dB,-9.02586107423279e+001°)
1.07646521362983e+003	(-4.50796504134000e+001dB,-9.02592079417465e+001°)
1.07894672222983e+003	(-4.50596130627970e+001dB,-9.02598065250429e+001°)
1.08143395129794e+003	(-4.50395755396327e+001dB,-9.02604064955229e+001°)
1.08392691402120e+003	(-4.50195378431095e+001dB,-9.02610078563845e+001°)
1.08642562361706e+003	(-4.49994999724253e+001dB,-9.02616106108884e+001°)
1.08893009333343e+003	(-4.49794619267751e+001dB,-9.02622147622993e+001°)
1.09144033644875e+003	(-4.49594237053495e+001dB,-9.02628203139166e+001°)
1.09395636627209e+003	(-4.49393853073359e+001dB,-9.02634272689842e+001°)
1.09647819614318e+003	(-4.49193467319174e+001dB,-9.02640356308062e+001°)
1.09900583943252e+003	(-4.48993079782737e+001dB,-9.02646454026754e+001°)
1.10153930954141e+003	(-4.48792690455805e+001dB,-9.02652565879121e+001°)
1.10407861990207e+003	(-4.48592299330100e+001dB,-9.02658691897887e+001°)
1.10662378397766e+003	(-4.48391906397300e+001dB,-9.02664832116706e+001°)
1.10917481526240e+003	(-4.48191511649051e+001dB,-9.02670986568479e+001°)
1.11173172728159e+003	(-4.47991115076955e+001dB,-9.02677155286757e+001°)
1.11429453359173e+003	(-4.47790716672577e+001dB,-9.02683338304990e+001°)
1.11686324778056e+003	(-4.47590316427444e+001dB,-9.02689535656392e+001°)
1.11943788346715e+003	(-4.47389914333043e+001dB,-9.02695747374935e+001°)
1.12201845430196e+003	(-4.47189510380820e+001dB,-9.02701973494301e+001°)
1.12460497396692e+003	(-4.46989104562184e+001dB,-9.02708214048008e+001°)
1.12719745617551e+003	(-4.46788696868500e+001dB,-9.02714469070225e+001°)
1.12979591467279e+003	(-4.46588287291100e+001dB,-9.02720738594344e+001°)
1.13240036323555e+003	(-4.46387875821269e+001dB,-9.02727022654827e+001°)
1.13501081567231e+003	(-4.46187462450255e+001dB,-9.02733321285649e+001°)
1.13762728582343e+003	(-4.45987047169265e+001dB,-9.02739634520854e+001°)
1.14024978756117e+003	(-4.45786629969463e+001dB,-9.02745962394847e+001°)
1.14287833478977e+003	(-4.45586210841977e+001dB,-9.02752304942004e+001°)
1.14551294144553e+003	(-4.45385789777889e+001dB,-9.02758662196627e+001°)
1.14815362149688e+003	(-4.45185366768241e+001dB,-9.02765034193146e+001°)
1.15080038894443e+003	(-4.44984941804037e+001dB,-9.02771420966500e+001°)
1.15345325782109e+003	(-4.44784514876234e+001dB,-9.02777822550813e+001°)
1.15611224219210e+003	(-4.44584085975749e+001dB,-9.02784238981384e+001°)
1.15877735615512e+003	(-4.44383655093459e+001dB,-9.02790670292603e+001°)
1.16144861384034e+003	(-4.44183222220196e+001dB,-9.02797116519848e+001°)
1.16412602941049e+003	(-4.43982787346750e+001dB,-9.02803577697753e+001°)
1.16680961706096e+003	(-4.43782350463870e+001dB,-9.02810053861588e+001°)
1.16949939101987e+003	(-4.43581911562260e+001dB,-9.02816545046499e+001°)
1.17219536554813e+003	(-4.43381470632583e+001dB,-9.02823051287710e+001°)
1.17489755493953e+003	(-4.43181027665457e+001dB,-9.02829572620645e+001°)
1.17760597352080e+003	(-4.42980582651457e+001dB,-9.02836109080752e+001°)
1.18032063565173e+003	(-4.42780135581114e+001dB,-9.02842660703461e+001°)
1.18304155572516e+003	(-4.42579686444916e+001dB,-9.02849227524544e+001°)
1.18576874816716e+003	(-4.42379235233307e+001dB,-9.02855809579456e+001°)
1.18850222743701e+003	(-4.42178781936685e+001dB,-9.02862406904269e+001°)
1.19124200802737e+003	(-4.41978326545404e+001dB,-9.02869019534646e+001°)
1.19398810446427e+003	(-4.41777869049776e+001dB,-9.02875647506607e+001°)
1.19674053130724e+003	(-4.41577409440066e+001dB,-9.02882290856082e+001°)
1.19949930314937e+003	(-4.41376947706492e+001dB,-9.02888949619345e+001°)
1.20226443461741e+003	(-4.41176483839228e+001dB,-9.02895623832686e+001°)
1.20503594037179e+003	(-4.40976017828405e+001dB,-9.02902313532244e+001°)
1.20781383510678e+003	(-4.40775549664103e+001dB,-9.02909018754566e+001°)
1.21059813355048e+003	(-4.40575079336364e+001dB,-9.02915739536077e+001°)
1.21338885046497e+003	(-4.40374606835174e+001dB,-9.02922475913237e+001°)
1.21618600064636e+003	(-4.40174132150481e+001dB,-9.02929227922892e+001°)
1.21898959892486e+003	(-4.39973655272182e+001dB,-9.02935995601592e+001°)
1.22179966016487e+003	(-4.39773176190126e+001dB,-9.02942778986500e+001°)
1.22461619926504e+003	(-4.39572694894119e+001dB,-9.02949578114270e+001°)
1.22743923115840e+003	(-4.39372211373918e+001dB,-9.02956393022078e+001°)
1.23026877081238e+003	(-4.39171725619232e+001dB,-9.02963223746862e+001°)
1.23310483322890e+003	(-4.38971237619721e+001dB,-9.02970070326063e+001°)
1.23594743344450e+003	(-4.38770747364999e+001dB,-9.02976932796796e+001°)
1.23879658653036e+003	(-4.38570254844632e+001dB,-9.02983811196548e+001°)
1.24165230759241e+003	(-4.38369760048136e+001dB,-9.02990705562899e+001°)
1.24451461177138e+003	(-4.38169262964981e+001dB,-9.02997615933202e+001°)
1.24738351424294e+003	(-4.37968763584587e+001dB,-9.03004542345205e+001°)
1.25025903021771e+003	(-4.37768261896322e+001dB,-9.03011484836573e+001°)
1.25314117494141e+003	(-4.37567757889506e+001dB,-9.03018443445504e+001°)
1.25602996369487e+003	(-4.37367251553414e+001dB,-9.03025418209445e+001°)
1.25892541179416e+003	(-4.37166742877267e+001dB,-9.03032409166829e+001°)
1.26182753459066e+003	(-4.36966231850235e+001dB,-9.03039416355556e+001°)
1.26473634747115e+003	(-4.36765718461443e+001dB,-9.03046439813842e+001°)
1.26765186585784e+003	(-4.36565202699957e+001dB,-9.03053479580210e+001°)
1.27057410520854e+003	(-4.36364684554802e+001dB,-9.03060535692866e+001°)
1.27350308101666e+003	(-4.36164164014945e+001dB,-9.03067608190350e+001°)
1.27643880881134e+003	(-4.35963641069305e+001dB,-9.03074697111486e+001°)
1.27938130415752e+003	(-4.35763115706750e+001dB,-9.03081802494579e+001°)
1.28233058265601e+003	(-4.35562587916093e+001dB,-9.03088924378700e+001°)
1.28528665994361e+003	(-4.35362057686098e+001dB,-9.03096062802580e+001°)
1.28824955169313e+003	(-4.35161525005476e+001dB,-9.03103217805323e+001°)
1.29121927361353e+003	(-4.34960989862887e+001dB,-9.03110389425906e+001°)
1.29419584144998e+003	(-4.34760452246938e+001dB,-9.03117577703591e+001°)
1.29717927098395e+003	(-4.34559912146180e+001dB,-9.03124782677390e+001°)
1.30016957803328e+003	(-4.34359369549114e+001dB,-9.03132004386960e+001°)
1.30316677845229e+003	(-4.34158824444186e+001dB,-9.03139242871733e+001°)
1.30617088813183e+003	(-4.33958276819792e+001dB,-9.03146498171099e+001°)
1.30918192299940e+003	(-4.33757726664269e+001dB,-9.03153770324810e+001°)
1.31219989901920e+003	(-4.33557173965902e+001dB,-9.03161059372894e+001°)
1.31522483219223e+003	(-4.33356618712923e+001dB,-9.03168365354542e+001°)
1.31825673855640e+003	(-4.33156060893509e+001dB,-9.03175688310322e+001°)
1.32129563418657e+003	(-4.32955500495779e+001dB,-9.03183028279801e+001°)
1.32434153519466e+003	(-4.32754937507801e+001dB,-9.03190385303501e+001°)
1.32739445772973e+003	(-4.32554371917587e+001dB,-9.03197759421489e+001°)
1.33045441797808e+003	(-4.32353803713089e+001dB,-9.03205150674179e+001°)
1.33352143216332e+003	(-4.32153232882209e+001dB,-9.03212559101925e+001°)
1.33659551654643e+003	(-4.31952659412788e+001dB,-9.03219984745268e+001°)
1.33967668742593e+003	(-4.31752083292614e+001dB,-9.03227427645073e+001°)
1.34276496113786e+003	(-4.31551504509419e+001dB,-9.03234887841798e+001°)
1.34586035405594e+003	(-4.31350923050872e+001dB,-9.03242365376432e+001°)
1.34896288259165e+003	(-4.31150338904593e+001dB,-9.03249860289690e+001°)
1.35207256319427e+003	(-4.30949752058136e+001dB,-9.03257372623051e+001°)
1.35518941235103e+003	(-4.30749162499006e+001dB,-9.03264902417313e+001°)
1.35831344658715e+003	(-4.30548570214642e+001dB,-9.03272449713773e+001°)
1.36144468246594e+003	(-4.30347975192431e+001dB,-9.03280014553932e+001°)
1.36458313658892e+003	(-4.30147377419697e+001dB,-9.03287596979235e+001°)
1.36772882559584e+003	(-4.29946776883708e+001dB,-9.03295197030998e+001°)
1.37088176616484e+003	(-4.29746173571669e+001dB,-9.03302814751043e+001°)
1.37404197501251e+003	(-4.29545567470733e+001dB,-9.03310450181184e+001°)
1.37720946889394e+003	(-4.29344958567985e+001dB,-9.03318103363338e+001°)
1.38038426460288e+003	(-4.29144346850454e+001dB,-9.03325774339226e+001°)
1.38356637897177e+003	(-4.28943732305112e+001dB,-9.03333463150974e+001°)
1.38675582887188e+003	(-4.28743114918863e+001dB,-9.03341169840926e+001°)
1.38995263121334e+003	(-4.28542494678555e+001dB,-9.03348894451316e+001°)
1.39315680294529e+003	(-4.28341871570976e+001dB,-9.03356637024516e+001°)
1.39636836105593e+003	(-4.28141245582849e+001dB,-9.03364397602884e+001°)
1.39958732257261e+003	(-4.27940616700837e+001dB,-9.03372176229174e+001°)
1.40281370456195e+003	(-4.27739984911543e+001dB,-9.03379972946010e+001°)
1.40604752412990e+003	(-4.27539350201504e+001dB,-9.03387787796226e+001°)
1.40928879842186e+003	(-4.27338712557196e+001dB,-9.03395620822855e+001°)
1.41253754462274e+003	(-4.27138071965034e+001dB,-9.03403472068679e+001°)
1.41579377995707e+003	(-4.26937428411369e+001dB,-9.03411341577079e+001°)
1.41905752168908e+003	(-4.26736781882487e+001dB,-9.03419229390996e+001°)
1.42232878712281e+003	(-4.26536132364611e+001dB,-9.03427135554061e+001°)
1.42560759360218e+003	(-4.26335479843902e+001dB,-9.03435060109621e+001°)
1.42889395851109e+003	(-4.26134824306454e+001dB,-9.03443003101187e+001°)
1.43218789927353e+003	(-4.25934165738297e+001dB,-9.03450964572448e+001°)
1.43548943335364e+003	(-4.25733504125397e+001dB,-9.03458944567208e+001°)
1.43879857825583e+003	(-4.25532839453655e+001dB,-9.03466943129402e+001°)
1.44211535152486e+003	(-4.25332171708907e+001dB,-9.03474960302895e+001°)
1.44543977074592e+003	(-4.25131500876918e+001dB,-9.03482996131940e+001°)
1.44877185354475e+003	(-4.24930826943395e+001dB,-9.03491050660636e+001°)
1.45211161758773e+003	(-4.24730149893974e+001dB,-9.03499123933389e+001°)
1.45545908058195e+003	(-4.24529469714223e+001dB,-9.03507215994640e+001°)
1.45881426027534e+003	(-4.24328786389646e+001dB,-9.03515326888950e+001°)
1.46217717445671e+003	(-4.24128099905678e+001dB,-9.03523456660571e+001°)
1.46554784095590e+003	(-4.23927410247687e+001dB,-9.03531605354993e+001°)
1.46892627764385e+003	(-4.23726717400973e+001dB,-9.03539773016581e+001°)
1.47231250243271e+003	(-4.23526021350768e+001dB,-9.03547959690391e+001°)
1.47570653327588e+003	(-4.23325322082232e+001dB,-9.03556165421670e+001°)
1.47910838816819e+003	(-4.23124619580461e+001dB,-9.03564390255839e+001°)
1.48251808514594e+003	(-4.22923913830480e+001dB,-9.03572634237770e+001°)
1.48593564228699e+003	(-4.22723204817242e+001dB,-9.03580897413157e+001°)
1.48936107771090e+003	(-4.22522492525634e+001dB,-9.03589179827523e+001°)
1.49279440957898e+003	(-4.22321776940469e+001dB,-9.03597481526636e+001°)
1.49623565609442e+003	(-4.22121058046492e+001dB,-9.03605802556113e+001°)
1.49968483550236e+003	(-4.21920335828378e+001dB,-9.03614142961932e+001°)
1.50314196609001e+003	(-4.21719610270726e+001dB,-9.03622502790069e+001°)
1.50660706618673e+003	(-4.21518881358069e+001dB,-9.03630882086778e+001°)
1.51008015416413e+003	(-4.21318149074863e+001dB,-9.03639280898359e+001°)
1.51356124843619e+003	(-4.21117413405496e+001dB,-9.03647699270957e+001°)
1.51705036745932e+003	(-4.20916674334282e+001dB,-9.03656137251200e+001°)
1.52054752973248e+003	(-4.20715931845460e+001dB,-9.03664594885736e+001°)
1.52405275379728e+003	(-4.20515185923199e+001dB,-9.03673072220881e+001°)
1.52756605823806e+003	(-4.20314436551593e+001dB,-9.03681569304106e+001°)
1.53108746168201e+003	(-4.20113683714660e+001dB,-9.03690086182085e+001°)
1.53461698279928e+003	(-4.19912927396348e+001dB,-9.03698622901615e+001°)
1.53815464030302e+003	(-4.19712167580526e+001dB,-9.03707179510333e+001°)
1.54170045294954e+003	(-4.19511404250992e+001dB,-9.03715756055349e+001°)
1.54525443953840e+003	(-4.19310637391464e+001dB,-9.03724352584026e+001°)
1.54881661891247e+003	(-4.19109866985590e+001dB,-9.03732969143849e+001°)
1.55238700995807e+003	(-4.18909093016936e+001dB,-9.03741605782791e+001°)
1.55596563160506e+003	(-4.18708315468996e+001dB,-9.03750262548397e+001°)
1.55955250282694e+003	(-4.18507534325186e+001dB,-9.03758939488466e+001°)
1.56314764264094e+003	(-4.18306749568843e+001dB,-9.03767636651352e+001°)
1.56675107010813e+003	(-4.18105961183229e+001dB,-9.03776354085146e+001°)
1.57036280433354e+003	(-4.17905169151526e+001dB,-9.03785091838014e+001°)
1.57398286446620e+003	(-4.17704373456840e+001dB,-9.03793849958186e+001°)
1.57761126969933e+003	(-4.17503574082197e+001dB,-9.03802628494565e+001°)
1.58124803927037e+003	(-4.17302771010545e+001dB,-9.03811427495551e+001°)
1.58489319246110e+003	(-4.17101964224753e+001dB,-9.03820247009860e+001°)
1.58854674859776e+003	(-4.16901153707606e+001dB,-9.03829087086515e+001°)
1.59220872705115e+003	(-4.16700339441815e+001dB,-9.03837947774475e+001°)
1.59587914723672e+003	(-4.16499521410007e+001dB,-9.03846829122838e+001°)
1.59955802861465e+003	(-4.16298699594727e+001dB,-9.03855731181012e+001°)
1.60324539069002e+003	(-4.16097873978445e+001dB,-9.03864653998076e+001°)
1.60694125301286e+003	(-4.15897044543542e+001dB,-9.03873597623918e+001°)
1.61064563517825e+003	(-4.15696211272320e+001dB,-9.03882562107987e+001°)
1.61435855682647e+003	(-4.15495374147002e+001dB,-9.03891547499893e+001°)
1.61808003764305e+003	(-4.15294533149722e+001dB,-9.03900553849845e+001°)
1.62181009735891e+003	(-4.15093688262535e+001dB,-9.03909581207593e+001°)
1.62554875575047e+003	(-4.14892839467413e+001dB,-9.03918629623319e+001°)
1.62929603263970e+003	(-4.14691986746239e+001dB,-9.03927699147509e+001°)
1.63305194789432e+003	(-4.14491130080819e+001dB,-9.03936789830229e+001°)
1.63681652142779e+003	(-4.14290269452867e+001dB,-9.03945901722336e+001°)
1.64058977319952e+003	(-4.14089404844019e+001dB,-9.03955034874341e+001°)
1.64437172321491e+003	(-4.13888536235819e+001dB,-9.03964189336963e+001°)
1.64816239152549e+003	(-4.13687663609730e+001dB,-9.03973365161124e+001°)
1.65196179822900e+003	(-4.13486786947125e+001dB,-9.03982562397935e+001°)
1.65576996346951e+003	(-4.13285906229294e+001dB,-9.03991781098575e+001°)
1.65958690743754e+003	(-4.13085021437436e+001dB,-9.04001021314277e+001°)
1.66341265037015e+003	(-4.12884132552666e+001dB,-9.04010283096530e+001°)
1.66724721255104e+003	(-4.12683239556009e+001dB,-9.04019566496949e+001°)
1.67109061431069e+003	(-4.12482342428402e+001dB,-9.04028871567122e+001°)
1.67494287602642e+003	(-4.12281441150693e+001dB,-9.04038198358895e+001°)
1.67880401812254e+003	(-4.12080535703641e+001dB,-9.04047546924299e+001°)
1.68267406107045e+003	(-4.11879626067917e+001dB,-9.04056917315375e+001°)
1.68655302538872e+003	(-4.11678712224098e+001dB,-9.04066309584418e+001°)
1.69044093164324e+003	(-4.11477794152676e+001dB,-9.04075723783685e+001°)
1.69433780044731e+003	(-4.11276871834048e+001dB,-9.04085159965817e+001°)
1.69824365246172e+003	(-4.11075945248520e+001dB,-9.04094618183338e+001°)
1.70215850839493e+003	(-4.10875014376309e+001dB,-9.04104098488968e+001°)
1.70608238900310e+003	(-4.10674079197535e+001dB,-9.04113600935780e+001°)
1.71001531509027e+003	(-4.10473139692232e+001dB,-9.04123125576765e+001°)
1.71395730750840e+003	(-4.10272195840336e+001dB,-9.04132672464851e+001°)
1.71790838715757e+003	(-4.10071247621690e+001dB,-9.04142241653666e+001°)
1.72186857498598e+003	(-4.09870295016046e+001dB,-9.04151833196499e+001°)
1.72583789199018e+003	(-4.09669338003058e+001dB,-9.04161447147034e+001°)
1.72981635921508e+003	(-4.09468376562289e+001dB,-9.04171083558941e+001°)
1.73380399775412e+003	(-4.09267410673203e+001dB,-9.04180742485928e+001°)
1.73780082874935e+003	(-4.09066440315171e+001dB,-9.04190423982264e+001°)
1.74180687339159e+003	(-4.08865465467464e+001dB,-9.04200128102009e+001°)
1.74582215292048e+003	(-4.08664486109264e+001dB,-9.04209854899400e+001°)
1.74984668862463e+003	(-4.08463502219649e+001dB,-9.04219604428705e+001°)
1.75388050184174e+003	(-4.08262513777602e+001dB,-9.04229376744764e+001°)
1.75792361395867e+003	(-4.08061520762008e+001dB,-9.04239171902152e+001°)
1.76197604641161e+003	(-4.07860523151653e+001dB,-9.04248989955692e+001°)
1.76603782068614e+003	(-4.07659520925225e+001dB,-9.04258830960284e+001°)
1.77010895831740e+003	(-4.07458514061311e+001dB,-9.04268694971333e+001°)
1.77418948089014e+003	(-4.07257502538402e+001dB,-9.04278582043780e+001°)
1.77827941003890e+003	(-4.07056486334884e+001dB,-9.04288492233243e+001°)
1.78237876744807e+003	(-4.06855465429045e+001dB,-9.04298425595215e+001°)
1.78648757485203e+003	(-4.06654439799071e+001dB,-9.04308382185488e+001°)
1.79060585403527e+003	(-4.06453409423048e+001dB,-9.04318362059661e+001°)
1.79473362683250e+003	(-4.06252374278956e+001dB,-9.04328365274018e+001°)
1.79887091512876e+003	(-4.06051334344675e+001dB,-9.04338391884576e+001°)
1.80301774085954e+003	(-4.05850289597984e+001dB,-9.04348441947344e+001°)
1.80717412601090e+003	(-4.05649240016553e+001dB,-9.04358515519178e+001°)
1.81134009261958e+003	(-4.05448185577952e+001dB,-9.04368612656502e+001°)
1.81551566277311e+003	(-4.05247126259646e+001dB,-9.04378733415892e+001°)
1.81970085860996e+003	(-4.05046062038992e+001dB,-9.04388877854339e+001°)
1.82389570231961e+003	(-4.04844992893245e+001dB,-9.04399046028908e+001°)
1.82810021614272e+003	(-4.04643918799553e+001dB,-9.04409237996552e+001°)
1.83231442237119e+003	(-4.04442839734955e+001dB,-9.04419453814895e+001°)
1.83653834334832e+003	(-4.04241755676385e+001dB,-9.04429693541185e+001°)
1.84077200146893e+003	(-4.04040666600670e+001dB,-9.04439957232979e+001°)
1.84501541917945e+003	(-4.03839572484527e+001dB,-9.04450244948183e+001°)
1.84926861897805e+003	(-4.03638473304567e+001dB,-9.04460556744670e+001°)
1.85353162341478e+003	(-4.03437369037288e+001dB,-9.04470892680433e+001°)
1.85780445509167e+003	(-4.03236259659082e+001dB,-9.04481252813782e+001°)
1.86208713666284e+003	(-4.03035145146228e+001dB,-9.04491637203073e+001°)
1.86637969083464e+003	(-4.02834025474898e+001dB,-9.04502045906723e+001°)
1.87068214036577e+003	(-4.02632900621150e+001dB,-9.04512478983594e+001°)
