Freq.	V(n001)
Step Information: 1=1  (Run: 1/11)
1.00000000000000e+003	(-4.52520501790104e+001dB,-9.02188037422657e+001°)
1.00230523807790e+003	(-4.52320162969283e+001dB,-9.02193089327418e+001°)
1.00461579027840e+003	(-4.52119822583226e+001dB,-9.02198152933199e+001°)
1.00693166885180e+003	(-4.51919480624696e+001dB,-9.02203228267611e+001°)
1.00925288607668e+003	(-4.51719137086421e+001dB,-9.02208315357590e+001°)
1.01157945425990e+003	(-4.51518791961098e+001dB,-9.02213414230995e+001°)
1.01391138573668e+003	(-4.51318445241389e+001dB,-9.02218524915410e+001°)
1.01624869287070e+003	(-4.51118096919922e+001dB,-9.02223647438238e+001°)
1.01859138805412e+003	(-4.50917746989291e+001dB,-9.02228781827236e+001°)
1.02093948370768e+003	(-4.50717395442055e+001dB,-9.02233928110201e+001°)
1.02329299228075e+003	(-4.50517042270739e+001dB,-9.02239086315002e+001°)
1.02565192625141e+003	(-4.50316687467834e+001dB,-9.02244256469264e+001°)
1.02801629812647e+003	(-4.50116331025797e+001dB,-9.02249438601400e+001°)
1.03038612044162e+003	(-4.49915972937047e+001dB,-9.02254632739118e+001°)
1.03276140576140e+003	(-4.49715613193970e+001dB,-9.02259838910414e+001°)
1.03514216667934e+003	(-4.49515251788918e+001dB,-9.02265057143691e+001°)
1.03752841581801e+003	(-4.49314888714202e+001dB,-9.02270287467132e+001°)
1.03992016582906e+003	(-4.49114523962105e+001dB,-9.02275529908922e+001°)
1.04231742939330e+003	(-4.48914157524872e+001dB,-9.02280784497462e+001°)
1.04472021922080e+003	(-4.48713789394706e+001dB,-9.02286051261190e+001°)
1.04712854805090e+003	(-4.48513419563781e+001dB,-9.02291330228659e+001°)
1.04954242865232e+003	(-4.48313048024233e+001dB,-9.02296621428232e+001°)
1.05196187382322e+003	(-4.48112674768159e+001dB,-9.02301924888995e+001°)
1.05438689639126e+003	(-4.47912299787623e+001dB,-9.02307240639216e+001°)
1.05681750921366e+003	(-4.47711923074649e+001dB,-9.02312568707791e+001°)
1.05925372517729e+003	(-4.47511544621229e+001dB,-9.02317909123623e+001°)
1.06169555719872e+003	(-4.47311164419309e+001dB,-9.02323261915575e+001°)
1.06414301822431e+003	(-4.47110782460809e+001dB,-9.02328627112510e+001°)
1.06659612123026e+003	(-4.46910398737602e+001dB,-9.02334004743760e+001°)
1.06905487922266e+003	(-4.46710013241526e+001dB,-9.02339394838345e+001°)
1.07151930523761e+003	(-4.46509625964386e+001dB,-9.02344797425144e+001°)
1.07398941234124e+003	(-4.46309236897943e+001dB,-9.02350212534002e+001°)
1.07646521362983e+003	(-4.46108846033921e+001dB,-9.02355640193713e+001°)
1.07894672222983e+003	(-4.45908453364010e+001dB,-9.02361080433985e+001°)
1.08143395129794e+003	(-4.45708058879855e+001dB,-9.02366533284407e+001°)
1.08392691402120e+003	(-4.45507662573068e+001dB,-9.02371998774146e+001°)
1.08642562361706e+003	(-4.45307264435219e+001dB,-9.02377476932884e+001°)
1.08893009333343e+003	(-4.45106864457838e+001dB,-9.02382967790678e+001°)
1.09144033644875e+003	(-4.44906462632419e+001dB,-9.02388471376942e+001°)
1.09395636627209e+003	(-4.44706058950414e+001dB,-9.02393987721670e+001°)
1.09647819614318e+003	(-4.44505653403237e+001dB,-9.02399516854836e+001°)
1.09900583943252e+003	(-4.44305245982262e+001dB,-9.02405058806140e+001°)
1.10153930954141e+003	(-4.44104836678822e+001dB,-9.02410613605676e+001°)
1.10407861990207e+003	(-4.43904425484209e+001dB,-9.02416181283967e+001°)
1.10662378397766e+003	(-4.43704012389679e+001dB,-9.02421761870703e+001°)
1.10917481526240e+003	(-4.43503597386440e+001dB,-9.02427355396621e+001°)
1.11173172728159e+003	(-4.43303180465668e+001dB,-9.02432961891742e+001°)
1.11429453359173e+003	(-4.43102761618492e+001dB,-9.02438581386456e+001°)
1.11686324778056e+003	(-4.42902340836003e+001dB,-9.02444213911512e+001°)
1.11943788346715e+003	(-4.42701918109248e+001dB,-9.02449859497184e+001°)
1.12201845430196e+003	(-4.42501493429235e+001dB,-9.02455518174548e+001°)
1.12460497396692e+003	(-4.42301066786928e+001dB,-9.02461189973789e+001°)
1.12719745617551e+003	(-4.42100638173252e+001dB,-9.02466874926005e+001°)
1.12979591467279e+003	(-4.41900207579087e+001dB,-9.02472573061885e+001°)
1.13240036323555e+003	(-4.41699774995272e+001dB,-9.02478284412692e+001°)
1.13501081567231e+003	(-4.41499340412604e+001dB,-9.02484009009029e+001°)
1.13762728582343e+003	(-4.41298903821839e+001dB,-9.02489746882179e+001°)
1.14024978756117e+003	(-4.41098465213684e+001dB,-9.02495498063452e+001°)
1.14287833478977e+003	(-4.40898024578810e+001dB,-9.02501262583851e+001°)
1.14551294144553e+003	(-4.40697581907840e+001dB,-9.02507040474841e+001°)
1.14815362149688e+003	(-4.40497137191357e+001dB,-9.02512831767695e+001°)
1.15080038894443e+003	(-4.40296690419898e+001dB,-9.02518636493851e+001°)
1.15345325782109e+003	(-4.40096241583956e+001dB,-9.02524454684949e+001°)
1.15611224219210e+003	(-4.39895790673981e+001dB,-9.02530286372703e+001°)
1.15877735615512e+003	(-4.39695337680379e+001dB,-9.02536131588697e+001°)
1.16144861384034e+003	(-4.39494882593509e+001dB,-9.02541990364741e+001°)
1.16412602941049e+003	(-4.39294425403690e+001dB,-9.02547862732662e+001°)
1.16680961706096e+003	(-4.39093966101191e+001dB,-9.02553748724386e+001°)
1.16949939101987e+003	(-4.38893504676240e+001dB,-9.02559648371846e+001°)
1.17219536554813e+003	(-4.38693041119018e+001dB,-9.02565561707255e+001°)
1.17489755493953e+003	(-4.38492575419657e+001dB,-9.02571488762711e+001°)
1.17760597352080e+003	(-4.38292107568250e+001dB,-9.02577429570501e+001°)
1.18032063565173e+003	(-4.38091637554840e+001dB,-9.02583384163019e+001°)
1.18304155572516e+003	(-4.37891165369424e+001dB,-9.02589352572410e+001°)
1.18576874816716e+003	(-4.37690691001954e+001dB,-9.02595334831384e+001°)
1.18850222743701e+003	(-4.37490214442332e+001dB,-9.02601330972470e+001°)
1.19124200802737e+003	(-4.37289735680419e+001dB,-9.02607341028204e+001°)
1.19398810446427e+003	(-4.37089254706023e+001dB,-9.02613365031397e+001°)
1.19674053130724e+003	(-4.36888771508910e+001dB,-9.02619403014743e+001°)
1.19949930314937e+003	(-4.36688286078795e+001dB,-9.02625455011198e+001°)
1.20226443461741e+003	(-4.36487798405344e+001dB,-9.02631521053784e+001°)
1.20503594037179e+003	(-4.36287308478179e+001dB,-9.02637601175387e+001°)
1.20781383510678e+003	(-4.36086816286873e+001dB,-9.02643695409332e+001°)
1.21059813355048e+003	(-4.35886321820949e+001dB,-9.02649803788612e+001°)
1.21338885046497e+003	(-4.35685825069883e+001dB,-9.02655926346566e+001°)
1.21618600064636e+003	(-4.35485326023099e+001dB,-9.02662063116686e+001°)
1.21898959892486e+003	(-4.35284824669977e+001dB,-9.02668214132117e+001°)
1.22179966016487e+003	(-4.35084320999843e+001dB,-9.02674379426677e+001°)
1.22461619926504e+003	(-4.34883815001978e+001dB,-9.02680559033711e+001°)
1.22743923115840e+003	(-4.34683306665609e+001dB,-9.02686752987375e+001°)
1.23026877081238e+003	(-4.34482795979914e+001dB,-9.02692961321006e+001°)
1.23310483322890e+003	(-4.34282282934025e+001dB,-9.02699184068401e+001°)
1.23594743344450e+003	(-4.34081767517017e+001dB,-9.02705421263990e+001°)
1.23879658653036e+003	(-4.33881249717920e+001dB,-9.02711672941230e+001°)
1.24165230759241e+003	(-4.33680729525707e+001dB,-9.02717939134685e+001°)
1.24451461177138e+003	(-4.33480206929309e+001dB,-9.02724219878122e+001°)
1.24738351424294e+003	(-4.33279681917595e+001dB,-9.02730515206288e+001°)
1.25025903021771e+003	(-4.33079154479391e+001dB,-9.02736825153201e+001°)
1.25314117494141e+003	(-4.32878624603466e+001dB,-9.02743149753330e+001°)
1.25602996369487e+003	(-4.32678092278539e+001dB,-9.02749489041396e+001°)
1.25892541179416e+003	(-4.32477557493276e+001dB,-9.02755843051826e+001°)
1.26182753459066e+003	(-4.32277020236290e+001dB,-9.02762211819361e+001°)
1.26473634747115e+003	(-4.32076480496144e+001dB,-9.02768595378623e+001°)
1.26765186585784e+003	(-4.31875938261344e+001dB,-9.02774993764823e+001°)
1.27057410520854e+003	(-4.31675393520344e+001dB,-9.02781407012570e+001°)
1.27350308101666e+003	(-4.31474846261546e+001dB,-9.02787835157307e+001°)
1.27643880881134e+003	(-4.31274296473295e+001dB,-9.02794278233714e+001°)
1.27938130415752e+003	(-4.31073744143887e+001dB,-9.02800736277479e+001°)
1.28233058265601e+003	(-4.30873189261559e+001dB,-9.02807209323227e+001°)
1.28528665994361e+003	(-4.30672631814493e+001dB,-9.02813697407007e+001°)
1.28824955169313e+003	(-4.30472071790822e+001dB,-9.02820200563942e+001°)
1.29121927361353e+003	(-4.30271509178617e+001dB,-9.02826718829525e+001°)
1.29419584144998e+003	(-4.30070943965898e+001dB,-9.02833252239708e+001°)
1.29717927098395e+003	(-4.29870376140628e+001dB,-9.02839800830085e+001°)
1.30016957803328e+003	(-4.29669805690714e+001dB,-9.02846364636307e+001°)
1.30316677845229e+003	(-4.29469232604007e+001dB,-9.02852943694649e+001°)
1.30617088813183e+003	(-4.29268656868302e+001dB,-9.02859538040690e+001°)
1.30918192299940e+003	(-4.29068078471338e+001dB,-9.02866147710796e+001°)
1.31219989901920e+003	(-4.28867497400793e+001dB,-9.02872772741086e+001°)
1.31522483219223e+003	(-4.28666913644295e+001dB,-9.02879413167744e+001°)
1.31825673855640e+003	(-4.28466327189407e+001dB,-9.02886069027263e+001°)
1.32129563418657e+003	(-4.28265738023638e+001dB,-9.02892740356046e+001°)
1.32434153519466e+003	(-4.28065146134442e+001dB,-9.02899427190481e+001°)
1.32739445772973e+003	(-4.27864551509207e+001dB,-9.02906129567375e+001°)
1.33045441797808e+003	(-4.27663954135271e+001dB,-9.02912847523506e+001°)
1.33352143216332e+003	(-4.27463353999908e+001dB,-9.02919581095336e+001°)
1.33659551654643e+003	(-4.27262751090333e+001dB,-9.02926330320182e+001°)
1.33967668742593e+003	(-4.27062145393702e+001dB,-9.02933095234688e+001°)
1.34276496113786e+003	(-4.26861536897115e+001dB,-9.02939875876168e+001°)
1.34586035405594e+003	(-4.26660925587606e+001dB,-9.02946672281734e+001°)
1.34896288259165e+003	(-4.26460311452155e+001dB,-9.02953484488468e+001°)
1.35207256319427e+003	(-4.26259694477676e+001dB,-9.02960312533959e+001°)
1.35518941235103e+003	(-4.26059074651027e+001dB,-9.02967156455783e+001°)
1.35831344658715e+003	(-4.25858451959000e+001dB,-9.02974016291028e+001°)
1.36144468246594e+003	(-4.25657826388331e+001dB,-9.02980892077637e+001°)
1.36458313658892e+003	(-4.25457197925689e+001dB,-9.02987783853528e+001°)
1.36772882559584e+003	(-4.25256566557686e+001dB,-9.02994691656010e+001°)
1.37088176616484e+003	(-4.25055932270869e+001dB,-9.03001615523429e+001°)
1.37404197501251e+003	(-4.24855295051724e+001dB,-9.03008555493582e+001°)
1.37720946889394e+003	(-4.24654654886672e+001dB,-9.03015511604682e+001°)
1.38038426460288e+003	(-4.24454011762073e+001dB,-9.03022483894920e+001°)
1.38356637897177e+003	(-4.24253365664223e+001dB,-9.03029472402586e+001°)
1.38675582887188e+003	(-4.24052716579355e+001dB,-9.03036477165838e+001°)
1.38995263121334e+003	(-4.23852064493636e+001dB,-9.03043498223587e+001°)
1.39315680294529e+003	(-4.23651409393171e+001dB,-9.03050535614131e+001°)
1.39636836105593e+003	(-4.23450751263999e+001dB,-9.03057589376113e+001°)
1.39958732257261e+003	(-4.23250090092095e+001dB,-9.03064659548574e+001°)
1.40281370456195e+003	(-4.23049425863370e+001dB,-9.03071746170094e+001°)
1.40604752412990e+003	(-4.22848758563666e+001dB,-9.03078849279873e+001°)
1.40928879842186e+003	(-4.22648088178762e+001dB,-9.03085968916864e+001°)
1.41253754462274e+003	(-4.22447414694370e+001dB,-9.03093105120104e+001°)
1.41579377995707e+003	(-4.22246738096137e+001dB,-9.03100257929056e+001°)
1.41905752168908e+003	(-4.22046058369640e+001dB,-9.03107427383122e+001°)
1.42232878712281e+003	(-4.21845375500393e+001dB,-9.03114613521503e+001°)
1.42560759360218e+003	(-4.21644689473841e+001dB,-9.03121816384002e+001°)
1.42889395851109e+003	(-4.21444000275361e+001dB,-9.03129036010050e+001°)
1.43218789927353e+003	(-4.21243307890260e+001dB,-9.03136272439667e+001°)
1.43548943335364e+003	(-4.21042612303782e+001dB,-9.03143525712390e+001°)
1.43879857825583e+003	(-4.20841913501097e+001dB,-9.03150795868492e+001°)
1.44211535152486e+003	(-4.20641211467310e+001dB,-9.03158082947720e+001°)
1.44543977074592e+003	(-4.20440506187455e+001dB,-9.03165386990508e+001°)
1.44877185354475e+003	(-4.20239797646496e+001dB,-9.03172708036914e+001°)
1.45211161758773e+003	(-4.20039085829328e+001dB,-9.03180046127443e+001°)
1.45545908058195e+003	(-4.19838370720776e+001dB,-9.03187401302470e+001°)
1.45881426027534e+003	(-4.19637652305593e+001dB,-9.03194773602452e+001°)
1.46217717445671e+003	(-4.19436930568465e+001dB,-9.03202163068081e+001°)
1.46554784095590e+003	(-4.19236205494000e+001dB,-9.03209569740371e+001°)
1.46892627764385e+003	(-4.19035477066741e+001dB,-9.03216993659866e+001°)
1.47231250243271e+003	(-4.18834745271157e+001dB,-9.03224434867544e+001°)
1.47570653327588e+003	(-4.18634010091643e+001dB,-9.03231893404556e+001°)
1.47910838816819e+003	(-4.18433271512521e+001dB,-9.03239369312473e+001°)
1.48251808514594e+003	(-4.18232529518046e+001dB,-9.03246862631842e+001°)
1.48593564228699e+003	(-4.18031784092394e+001dB,-9.03254373404547e+001°)
1.48936107771090e+003	(-4.17831035219667e+001dB,-9.03261901671906e+001°)
1.49279440957898e+003	(-4.17630282883898e+001dB,-9.03269447475407e+001°)
1.49623565609442e+003	(-4.17429527069044e+001dB,-9.03277010856830e+001°)
1.49968483550236e+003	(-4.17228767758982e+001dB,-9.03284591858168e+001°)
1.50314196609001e+003	(-4.17028004937521e+001dB,-9.03292190520984e+001°)
1.50660706618673e+003	(-4.16827238588393e+001dB,-9.03299806887475e+001°)
1.51008015416413e+003	(-4.16626468695251e+001dB,-9.03307440999819e+001°)
1.51356124843619e+003	(-4.16425695241676e+001dB,-9.03315092900050e+001°)
1.51705036745932e+003	(-4.16224918211172e+001dB,-9.03322762630627e+001°)
1.52054752973248e+003	(-4.16024137587162e+001dB,-9.03330450233883e+001°)
1.52405275379728e+003	(-4.15823353352999e+001dB,-9.03338155752288e+001°)
1.52756605823806e+003	(-4.15622565491952e+001dB,-9.03345879228866e+001°)
1.53108746168201e+003	(-4.15421773987217e+001dB,-9.03353620705949e+001°)
1.53461698279928e+003	(-4.15220978821909e+001dB,-9.03361380226531e+001°)
1.53815464030302e+003	(-4.15020179979064e+001dB,-9.03369157833683e+001°)
1.54170045294954e+003	(-4.14819377441641e+001dB,-9.03376953570487e+001°)
1.54525443953840e+003	(-4.14618571192521e+001dB,-9.03384767479945e+001°)
1.54881661891247e+003	(-4.14417761214501e+001dB,-9.03392599605411e+001°)
1.55238700995807e+003	(-4.14216947490303e+001dB,-9.03400449990502e+001°)
1.55596563160506e+003	(-4.14016130002562e+001dB,-9.03408318678550e+001°)
1.55955250282694e+003	(-4.13815308733840e+001dB,-9.03416205713131e+001°)
1.56314764264094e+003	(-4.13614483666611e+001dB,-9.03424111138061e+001°)
1.56675107010813e+003	(-4.13413654783273e+001dB,-9.03432034997175e+001°)
1.57036280433354e+003	(-4.13212822066137e+001dB,-9.03439977334618e+001°)
1.57398286446620e+003	(-4.13011985497438e+001dB,-9.03447938194164e+001°)
1.57761126969933e+003	(-4.12811145059320e+001dB,-9.03455917620172e+001°)
1.58124803927037e+003	(-4.12610300733853e+001dB,-9.03463915656849e+001°)
1.58489319246110e+003	(-4.12409452503015e+001dB,-9.03471932348596e+001°)
1.58854674859776e+003	(-4.12208600348708e+001dB,-9.03479967740080e+001°)
1.59220872705115e+003	(-4.12007744252743e+001dB,-9.03488021875712e+001°)
1.59587914723672e+003	(-4.11806884196849e+001dB,-9.03496094800447e+001°)
1.59955802861465e+003	(-4.11606020162672e+001dB,-9.03504186559226e+001°)
1.60324539069002e+003	(-4.11405152131771e+001dB,-9.03512297196682e+001°)
1.60694125301286e+003	(-4.11204280085617e+001dB,-9.03520426758169e+001°)
1.61064563517825e+003	(-4.11003404005599e+001dB,-9.03528575288636e+001°)
1.61435855682647e+003	(-4.10802523873014e+001dB,-9.03536742833731e+001°)
1.61808003764305e+003	(-4.10601639669078e+001dB,-9.03544929438710e+001°)
1.62181009735891e+003	(-4.10400751374915e+001dB,-9.03553135149091e+001°)
1.62554875575047e+003	(-4.10199858971563e+001dB,-9.03561360010638e+001°)
1.62929603263970e+003	(-4.09998962439970e+001dB,-9.03569604069212e+001°)
1.63305194789432e+003	(-4.09798061760999e+001dB,-9.03577867370348e+001°)
1.63681652142779e+003	(-4.09597156915419e+001dB,-9.03586149960563e+001°)
1.64058977319952e+003	(-4.09396247883913e+001dB,-9.03594451885748e+001°)
1.64437172321491e+003	(-4.09195334647073e+001dB,-9.03602773192004e+001°)
1.64816239152549e+003	(-4.08994417185402e+001dB,-9.03611113925916e+001°)
1.65196179822900e+003	(-4.08793495479308e+001dB,-9.03619474133978e+001°)
1.65576996346951e+003	(-4.08592569509112e+001dB,-9.03627853862706e+001°)
1.65958690743754e+003	(-4.08391639255041e+001dB,-9.03636253158930e+001°)
1.66341265037015e+003	(-4.08190704697232e+001dB,-9.03644672069373e+001°)
1.66724721255104e+003	(-4.07989765815728e+001dB,-9.03653110641198e+001°)
1.67109061431069e+003	(-4.07788822590479e+001dB,-9.03661568921111e+001°)
1.67494287602642e+003	(-4.07587875001340e+001dB,-9.03670046956847e+001°)
1.67880401812254e+003	(-4.07386923028077e+001dB,-9.03678544795315e+001°)
1.68267406107045e+003	(-4.07185966650358e+001dB,-9.03687062484213e+001°)
1.68655302538872e+003	(-4.06985005847754e+001dB,-9.03695600071086e+001°)
1.69044093164324e+003	(-4.06784040599748e+001dB,-9.03704157603483e+001°)
1.69433780044731e+003	(-4.06583070885721e+001dB,-9.03712735129415e+001°)
1.69824365246172e+003	(-4.06382096684960e+001dB,-9.03721332696741e+001°)
1.70215850839493e+003	(-4.06181117976658e+001dB,-9.03729950353386e+001°)
1.70608238900310e+003	(-4.05980134739903e+001dB,-9.03738588147871e+001°)
1.71001531509027e+003	(-4.05779146953697e+001dB,-9.03747246128328e+001°)
1.71395730750840e+003	(-4.05578154596937e+001dB,-9.03755924343064e+001°)
1.71790838715757e+003	(-4.05377157648422e+001dB,-9.03764622840901e+001°)
1.72186857498598e+003	(-4.05176156086853e+001dB,-9.03773341670253e+001°)
1.72583789199018e+003	(-4.04975149890831e+001dB,-9.03782080880297e+001°)
1.72981635921508e+003	(-4.04774139038859e+001dB,-9.03790840519684e+001°)
1.73380399775412e+003	(-4.04573123509341e+001dB,-9.03799620637595e+001°)
1.73780082874935e+003	(-4.04372103280575e+001dB,-9.03808421283201e+001°)
1.74180687339159e+003	(-4.04171078330762e+001dB,-9.03817242505894e+001°)
1.74582215292048e+003	(-4.03970048638001e+001dB,-9.03826084355069e+001°)
1.74984668862463e+003	(-4.03769014180288e+001dB,-9.03834946880216e+001°)
1.75388050184174e+003	(-4.03567974935517e+001dB,-9.03843830131155e+001°)
1.75792361395867e+003	(-4.03366930881478e+001dB,-9.03852734157732e+001°)
1.76197604641161e+003	(-4.03165881995858e+001dB,-9.03861659009946e+001°)
1.76603782068614e+003	(-4.02964828256241e+001dB,-9.03870604737810e+001°)
1.77010895831740e+003	(-4.02763769640104e+001dB,-9.03879571391522e+001°)
1.77418948089014e+003	(-4.02562706124822e+001dB,-9.03888559021564e+001°)
1.77827941003890e+003	(-4.02361637687661e+001dB,-9.03897567678378e+001°)
1.78237876744807e+003	(-4.02160564305785e+001dB,-9.03906597412517e+001°)
1.78648757485203e+003	(-4.01959485956247e+001dB,-9.03915648274763e+001°)
1.79060585403527e+003	(-4.01758402615996e+001dB,-9.03924720315991e+001°)
1.79473362683250e+003	(-4.01557314261874e+001dB,-9.03933813587313e+001°)
1.79887091512876e+003	(-4.01356220870612e+001dB,-9.03942928139762e+001°)
1.80301774085954e+003	(-4.01155122418837e+001dB,-9.03952064024668e+001°)
1.80717412601090e+003	(-4.00954018883060e+001dB,-9.03961221293648e+001°)
1.81134009261958e+003	(-4.00752910239688e+001dB,-9.03970399997835e+001°)
1.81551566277311e+003	(-4.00551796465019e+001dB,-9.03979600189164e+001°)
1.81970085860996e+003	(-4.00350677535236e+001dB,-9.03988821919425e+001°)
1.82389570231961e+003	(-4.00149553426411e+001dB,-9.03998065240558e+001°)
1.82810021614272e+003	(-3.99948424114508e+001dB,-9.04007330204771e+001°)
1.83231442237119e+003	(-3.99747289575375e+001dB,-9.04016616864100e+001°)
1.83653834334832e+003	(-3.99546149784751e+001dB,-9.04025925270958e+001°)
1.84077200146893e+003	(-3.99345004718261e+001dB,-9.04035255477972e+001°)
1.84501541917945e+003	(-3.99143854351411e+001dB,-9.04044607537700e+001°)
1.84926861897805e+003	(-3.98942698659600e+001dB,-9.04053981502944e+001°)
1.85353162341478e+003	(-3.98741537618108e+001dB,-9.04063377426547e+001°)
1.85780445509167e+003	(-3.98540371202099e+001dB,-9.04072795361677e+001°)
1.86208713666284e+003	(-3.98339199386625e+001dB,-9.04082235361425e+001°)
1.86637969083464e+003	(-3.98138022146618e+001dB,-9.04091697479140e+001°)
1.87068214036577e+003	(-3.97936839456894e+001dB,-9.04101181768248e+001°)
