Freq.	V(n003)
Step Information: 1=1  (Run: 1/11)
1.00000000000000e+003	(-4.80326672468746e+001dB,-9.02407149464545e+001°)
1.00230523807790e+003	(-4.80126398420102e+001dB,-9.02412705651397e+001°)
1.00461579027840e+003	(-4.79926123105656e+001dB,-9.02418274695839e+001°)
1.00693166885180e+003	(-4.79725846519558e+001dB,-9.02423856628278e+001°)
1.00925288607668e+003	(-4.79525568655930e+001dB,-9.02429451478462e+001°)
1.01157945425990e+003	(-4.79325289508867e+001dB,-9.02435059276667e+001°)
1.01391138573668e+003	(-4.79125009072437e+001dB,-9.02440680053069e+001°)
1.01624869287070e+003	(-4.78924727340680e+001dB,-9.02446313837986e+001°)
1.01859138805412e+003	(-4.78724444307610e+001dB,-9.02451960661564e+001°)
1.02093948370768e+003	(-4.78524159967210e+001dB,-9.02457620554644e+001°)
1.02329299228075e+003	(-4.78323874313439e+001dB,-9.02463293547322e+001°)
1.02565192625141e+003	(-4.78123587340226e+001dB,-9.02468979670070e+001°)
1.02801629812647e+003	(-4.77923299041471e+001dB,-9.02474678954097e+001°)
1.03038612044162e+003	(-4.77723009411050e+001dB,-9.02480391429429e+001°)
1.03276140576140e+003	(-4.77522718442804e+001dB,-9.02486117127064e+001°)
1.03514216667934e+003	(-4.77322426130551e+001dB,-9.02491856078349e+001°)
1.03752841581801e+003	(-4.77122132468078e+001dB,-9.02497608313503e+001°)
1.03992016582906e+003	(-4.76921837449143e+001dB,-9.02503373863943e+001°)
1.04231742939330e+003	(-4.76721541067478e+001dB,-9.02509152760748e+001°)
1.04472021922080e+003	(-4.76521243316781e+001dB,-9.02514945034712e+001°)
1.04712854805090e+003	(-4.76320944190725e+001dB,-9.02520750717564e+001°)
1.04954242865232e+003	(-4.76120643682953e+001dB,-9.02526569840195e+001°)
1.05196187382322e+003	(-4.75920341787077e+001dB,-9.02532402434112e+001°)
1.05438689639126e+003	(-4.75720038496680e+001dB,-9.02538248530824e+001°)
1.05681750921366e+003	(-4.75519733805316e+001dB,-9.02544108161841e+001°)
1.05925372517729e+003	(-4.75319427706510e+001dB,-9.02549981358606e+001°)
1.06169555719872e+003	(-4.75119120193754e+001dB,-9.02555868153153e+001°)
1.06414301822431e+003	(-4.74918811260512e+001dB,-9.02561768577080e+001°)
1.06659612123026e+003	(-4.74718500900219e+001dB,-9.02567682661847e+001°)
1.06905487922266e+003	(-4.74518189106276e+001dB,-9.02573610439665e+001°)
1.07151930523761e+003	(-4.74317875872056e+001dB,-9.02579551942712e+001°)
1.07398941234124e+003	(-4.74117561190902e+001dB,-9.02585507202601e+001°)
1.07646521362983e+003	(-4.73917245056124e+001dB,-9.02591476251733e+001°)
1.07894672222983e+003	(-4.73716927461001e+001dB,-9.02597459122464e+001°)
1.08143395129794e+003	(-4.73516608398783e+001dB,-9.02603455846689e+001°)
1.08392691402120e+003	(-4.73316287862689e+001dB,-9.02609466457072e+001°)
1.08642562361706e+003	(-4.73115965845902e+001dB,-9.02615490986042e+001°)
1.08893009333343e+003	(-4.72915642341580e+001dB,-9.02621529466024e+001°)
1.09144033644875e+003	(-4.72715317342844e+001dB,-9.02627581929609e+001°)
1.09395636627209e+003	(-4.72514990842784e+001dB,-9.02633648409487e+001°)
1.09647819614318e+003	(-4.72314662834462e+001dB,-9.02639728938330e+001°)
1.09900583943252e+003	(-4.72114333310904e+001dB,-9.02645823549306e+001°)
1.10153930954141e+003	(-4.71914002265103e+001dB,-9.02651932274802e+001°)
1.10407861990207e+003	(-4.71713669690023e+001dB,-9.02658055148438e+001°)
1.10662378397766e+003	(-4.71513335578593e+001dB,-9.02664192202702e+001°)
1.10917481526240e+003	(-4.71312999923712e+001dB,-9.02670343471013e+001°)
1.11173172728159e+003	(-4.71112662718241e+001dB,-9.02676508986569e+001°)
1.11429453359173e+003	(-4.70912323955011e+001dB,-9.02682688782740e+001°)
1.11686324778056e+003	(-4.70711983626823e+001dB,-9.02688882892726e+001°)
1.11943788346715e+003	(-4.70511641726438e+001dB,-9.02695091350510e+001°)
1.12201845430196e+003	(-4.70311298246588e+001dB,-9.02701314188874e+001°)
1.12460497396692e+003	(-4.70110953179972e+001dB,-9.02707551441942e+001°)
1.12719745617551e+003	(-4.69910606519253e+001dB,-9.02713803143247e+001°)
1.12979591467279e+003	(-4.69710258257058e+001dB,-9.02720069326691e+001°)
1.13240036323555e+003	(-4.69509908385983e+001dB,-9.02726350026251e+001°)
1.13501081567231e+003	(-4.69309556898591e+001dB,-9.02732645275645e+001°)
1.13762728582343e+003	(-4.69109203787406e+001dB,-9.02738955109050e+001°)
1.14024978756117e+003	(-4.68908849044923e+001dB,-9.02745279560536e+001°)
1.14287833478977e+003	(-4.68708492663597e+001dB,-9.02751618664180e+001°)
1.14551294144553e+003	(-4.68508134635851e+001dB,-9.02757972454663e+001°)
1.14815362149688e+003	(-4.68307774954072e+001dB,-9.02764340965824e+001°)
1.15080038894443e+003	(-4.68107413610612e+001dB,-9.02770724232435e+001°)
1.15345325782109e+003	(-4.67907050597787e+001dB,-9.02777122289077e+001°)
1.15611224219210e+003	(-4.67706685907878e+001dB,-9.02783535170089e+001°)
1.15877735615512e+003	(-4.67506319533130e+001dB,-9.02789962910658e+001°)
1.16144861384034e+003	(-4.67305951465753e+001dB,-9.02796405544732e+001°)
1.16412602941049e+003	(-4.67105581697920e+001dB,-9.02802863108133e+001°)
1.16680961706096e+003	(-4.66905210221767e+001dB,-9.02809335635106e+001°)
1.16949939101987e+003	(-4.66704837029395e+001dB,-9.02815823161047e+001°)
1.17219536554813e+003	(-4.66504462112867e+001dB,-9.02822325720969e+001°)
1.17489755493953e+003	(-4.66304085464212e+001dB,-9.02828843349985e+001°)
1.17760597352080e+003	(-4.66103707075417e+001dB,-9.02835376083683e+001°)
1.18032063565173e+003	(-4.65903326938437e+001dB,-9.02841923957146e+001°)
1.18304155572516e+003	(-4.65702945045189e+001dB,-9.02848487005707e+001°)
1.18576874816716e+003	(-4.65502561387548e+001dB,-9.02855065265417e+001°)
1.18850222743701e+003	(-4.65302175957358e+001dB,-9.02861658771545e+001°)
1.19124200802737e+003	(-4.65101788746419e+001dB,-9.02868267559643e+001°)
1.19398810446427e+003	(-4.64901399746499e+001dB,-9.02874891665909e+001°)
1.19674053130724e+003	(-4.64701008949321e+001dB,-9.02881531126118e+001°)
1.19949930314937e+003	(-4.64500616346576e+001dB,-9.02888185976202e+001°)
1.20226443461741e+003	(-4.64300221929912e+001dB,-9.02894856252190e+001°)
1.20503594037179e+003	(-4.64099825690942e+001dB,-9.02901541990259e+001°)
1.20781383510678e+003	(-4.63899427621237e+001dB,-9.02908243226668e+001°)
1.21059813355048e+003	(-4.63699027712331e+001dB,-9.02914959997653e+001°)
1.21338885046497e+003	(-4.63498625955718e+001dB,-9.02921692339789e+001°)
1.21618600064636e+003	(-4.63298222342853e+001dB,-9.02928440289349e+001°)
1.21898959892486e+003	(-4.63097816865149e+001dB,-9.02935203883195e+001°)
1.22179966016487e+003	(-4.62897409513983e+001dB,-9.02941983157724e+001°)
1.22461619926504e+003	(-4.62697000280690e+001dB,-9.02948778149955e+001°)
1.22743923115840e+003	(-4.62496589156565e+001dB,-9.02955588896591e+001°)
1.23026877081238e+003	(-4.62296176132862e+001dB,-9.02962415434788e+001°)
1.23310483322890e+003	(-4.62095761200796e+001dB,-9.02969257801118e+001°)
1.23594743344450e+003	(-4.61895344351540e+001dB,-9.02976116033313e+001°)
1.23879658653036e+003	(-4.61694925576228e+001dB,-9.02982990168099e+001°)
1.24165230759241e+003	(-4.61494504865949e+001dB,-9.02989880243093e+001°)
1.24451461177138e+003	(-4.61294082211756e+001dB,-9.02996786295409e+001°)
1.24738351424294e+003	(-4.61093657604656e+001dB,-9.03003708362577e+001°)
1.25025903021771e+003	(-4.60893231035616e+001dB,-9.03010646482683e+001°)
1.25314117494141e+003	(-4.60692802495562e+001dB,-9.03017600692691e+001°)
1.25602996369487e+003	(-4.60492371975376e+001dB,-9.03024571030820e+001°)
1.25892541179416e+003	(-4.60291939465900e+001dB,-9.03031557534612e+001°)
1.26182753459066e+003	(-4.60091504957931e+001dB,-9.03038560242293e+001°)
1.26473634747115e+003	(-4.59891068442227e+001dB,-9.03045579191656e+001°)
1.26765186585784e+003	(-4.59690629909499e+001dB,-9.03052614421061e+001°)
1.27057410520854e+003	(-4.59490189350418e+001dB,-9.03059665968527e+001°)
1.27350308101666e+003	(-4.59289746755610e+001dB,-9.03066733872674e+001°)
1.27643880881134e+003	(-4.59089302115657e+001dB,-9.03073818171520e+001°)
1.27938130415752e+003	(-4.58888855421101e+001dB,-9.03080918903676e+001°)
1.28233058265601e+003	(-4.58688406662436e+001dB,-9.03088036107930e+001°)
1.28528665994361e+003	(-4.58487955830113e+001dB,-9.03095169822708e+001°)
1.28824955169313e+003	(-4.58287502914541e+001dB,-9.03102320086999e+001°)
1.29121927361353e+003	(-4.58087047906082e+001dB,-9.03109486939465e+001°)
1.29419584144998e+003	(-4.57886590795054e+001dB,-9.03116670419270e+001°)
1.29717927098395e+003	(-4.57686131571731e+001dB,-9.03123870565580e+001°)
1.30016957803328e+003	(-4.57485670226339e+001dB,-9.03131087417319e+001°)
1.30316677845229e+003	(-4.57285206749064e+001dB,-9.03138321013887e+001°)
1.30617088813183e+003	(-4.57084741130042e+001dB,-9.03145571394432e+001°)
1.30918192299940e+003	(-4.56884273359364e+001dB,-9.03152838598565e+001°)
1.31219989901920e+003	(-4.56683803427075e+001dB,-9.03160122665969e+001°)
1.31522483219223e+003	(-4.56483331323177e+001dB,-9.03167423635907e+001°)
1.31825673855640e+003	(-4.56282857037621e+001dB,-9.03174741548333e+001°)
1.32129563418657e+003	(-4.56082380560314e+001dB,-9.03182076443198e+001°)
1.32434153519466e+003	(-4.55881901881116e+001dB,-9.03189428360502e+001°)
1.32739445772973e+003	(-4.55681420989840e+001dB,-9.03196797339807e+001°)
1.33045441797808e+003	(-4.55480937876251e+001dB,-9.03204183421617e+001°)
1.33352143216332e+003	(-4.55280452530067e+001dB,-9.03211586646079e+001°)
1.33659551654643e+003	(-4.55079964940959e+001dB,-9.03219007053554e+001°)
1.33967668742593e+003	(-4.54879475098548e+001dB,-9.03226444684322e+001°)
1.34276496113786e+003	(-4.54678982992410e+001dB,-9.03233899579001e+001°)
1.34586035405594e+003	(-4.54478488612069e+001dB,-9.03241371778402e+001°)
1.34896288259165e+003	(-4.54277991947004e+001dB,-9.03248861322907e+001°)
1.35207256319427e+003	(-4.54077492986643e+001dB,-9.03256368253499e+001°)
1.35518941235103e+003	(-4.53876991720366e+001dB,-9.03263892611097e+001°)
1.35831344658715e+003	(-4.53676488137502e+001dB,-9.03271434436643e+001°)
1.36144468246594e+003	(-4.53475982227332e+001dB,-9.03278993771379e+001°)
1.36458313658892e+003	(-4.53275473979088e+001dB,-9.03286570656461e+001°)
1.36772882559584e+003	(-4.53074963381951e+001dB,-9.03294165133285e+001°)
1.37088176616484e+003	(-4.52874450425051e+001dB,-9.03301777242965e+001°)
1.37404197501251e+003	(-4.52673935097470e+001dB,-9.03309407027441e+001°)
1.37720946889394e+003	(-4.52473417388236e+001dB,-9.03317054528174e+001°)
1.38038426460288e+003	(-4.52272897286328e+001dB,-9.03324719786744e+001°)
1.38356637897177e+003	(-4.52072374780675e+001dB,-9.03332402845255e+001°)
1.38675582887188e+003	(-4.51871849860153e+001dB,-9.03340103745453e+001°)
1.38995263121334e+003	(-4.51671322513586e+001dB,-9.03347822529459e+001°)
1.39315680294529e+003	(-4.51470792729749e+001dB,-9.03355559239299e+001°)
1.39636836105593e+003	(-4.51270260497362e+001dB,-9.03363313917311e+001°)
1.39958732257261e+003	(-4.51069725805092e+001dB,-9.03371086605907e+001°)
1.40281370456195e+003	(-4.50869188641556e+001dB,-9.03378877347345e+001°)
1.40604752412990e+003	(-4.50668648995317e+001dB,-9.03386686184353e+001°)
1.40928879842186e+003	(-4.50468106854886e+001dB,-9.03394513159576e+001°)
1.41253754462274e+003	(-4.50267562208719e+001dB,-9.03402358315757e+001°)
1.41579377995707e+003	(-4.50067015045219e+001dB,-9.03410221695545e+001°)
1.41905752168908e+003	(-4.49866465352736e+001dB,-9.03418103342300e+001°)
1.42232878712281e+003	(-4.49665913119565e+001dB,-9.03426003298825e+001°)
1.42560759360218e+003	(-4.49465358333947e+001dB,-9.03433921608394e+001°)
1.42889395851109e+003	(-4.49264800984068e+001dB,-9.03441858314520e+001°)
1.43218789927353e+003	(-4.49064241058060e+001dB,-9.03449813460234e+001°)
1.43548943335364e+003	(-4.48863678544000e+001dB,-9.03457787089147e+001°)
1.43879857825583e+003	(-4.48663113429910e+001dB,-9.03465779244864e+001°)
1.44211535152486e+003	(-4.48462545703752e+001dB,-9.03473789971244e+001°)
1.44543977074592e+003	(-4.48261975353440e+001dB,-9.03481819312214e+001°)
1.44877185354475e+003	(-4.48061402366825e+001dB,-9.03489867311324e+001°)
1.45211161758773e+003	(-4.47860826731704e+001dB,-9.03497934012928e+001°)
1.45545908058195e+003	(-4.47660248435820e+001dB,-9.03506019460945e+001°)
1.45881426027534e+003	(-4.47459667466855e+001dB,-9.03514123699989e+001°)
1.46217717445671e+003	(-4.47259083812435e+001dB,-9.03522246774274e+001°)
1.46554784095590e+003	(-4.47058497460131e+001dB,-9.03530388727958e+001°)
1.46892627764385e+003	(-4.46857908397452e+001dB,-9.03538549606125e+001°)
1.47231250243271e+003	(-4.46657316611854e+001dB,-9.03546729453182e+001°)
1.47570653327588e+003	(-4.46456722090730e+001dB,-9.03554928314019e+001°)
1.47910838816819e+003	(-4.46256124821416e+001dB,-9.03563146233652e+001°)
1.48251808514594e+003	(-4.46055524791193e+001dB,-9.03571383256962e+001°)
1.48593564228699e+003	(-4.45854921987278e+001dB,-9.03579639429201e+001°)
1.48936107771090e+003	(-4.45654316396830e+001dB,-9.03587914795640e+001°)
1.49279440957898e+003	(-4.45453708006949e+001dB,-9.03596209401653e+001°)
1.49623565609442e+003	(-4.45253096804676e+001dB,-9.03604523292575e+001°)
1.49968483550236e+003	(-4.45052482776989e+001dB,-9.03612856514210e+001°)
1.50314196609001e+003	(-4.44851865910808e+001dB,-9.03621209112098e+001°)
1.50660706618673e+003	(-4.44651246192992e+001dB,-9.03629581132190e+001°)
1.51008015416413e+003	(-4.44450623610339e+001dB,-9.03637972620161e+001°)
1.51356124843619e+003	(-4.44249998149584e+001dB,-9.03646383622456e+001°)
1.51705036745932e+003	(-4.44049369797401e+001dB,-9.03654814185148e+001°)
1.52054752973248e+003	(-4.43848738540405e+001dB,-9.03663264354266e+001°)
1.52405275379728e+003	(-4.43648104365144e+001dB,-9.03671734176419e+001°)
1.52756605823806e+003	(-4.43447467258109e+001dB,-9.03680223698029e+001°)
1.53108746168201e+003	(-4.43246827205722e+001dB,-9.03688732965748e+001°)
1.53461698279928e+003	(-4.43046184194348e+001dB,-9.03697262026361e+001°)
1.53815464030302e+003	(-4.42845538210284e+001dB,-9.03705810926659e+001°)
1.54170045294954e+003	(-4.42644889239767e+001dB,-9.03714379713635e+001°)
1.54525443953840e+003	(-4.42444237268967e+001dB,-9.03722968434394e+001°)
1.54881661891247e+003	(-4.42243582283992e+001dB,-9.03731577136147e+001°)
1.55238700995807e+003	(-4.42042924270883e+001dB,-9.03740205866405e+001°)
1.55596563160506e+003	(-4.41842263215620e+001dB,-9.03748854672119e+001°)
1.55955250282694e+003	(-4.41641599104114e+001dB,-9.03757523601460e+001°)
1.56314764264094e+003	(-4.41440931922213e+001dB,-9.03766212701577e+001°)
1.56675107010813e+003	(-4.41240261655698e+001dB,-9.03774922020579e+001°)
1.57036280433354e+003	(-4.41039588290284e+001dB,-9.03783651606269e+001°)
1.57398286446620e+003	(-4.40838911811621e+001dB,-9.03792401506743e+001°)
1.57761126969933e+003	(-4.40638232205291e+001dB,-9.03801171770103e+001°)
1.58124803927037e+003	(-4.40437549456808e+001dB,-9.03809962444765e+001°)
1.58489319246110e+003	(-4.40236863551622e+001dB,-9.03818773578857e+001°)
1.58854674859776e+003	(-4.40036174475111e+001dB,-9.03827605221204e+001°)
1.59220872705115e+003	(-4.39835482212590e+001dB,-9.03836457420406e+001°)
1.59587914723672e+003	(-4.39634786749301e+001dB,-9.03845330225029e+001°)
1.59955802861465e+003	(-4.39434088070421e+001dB,-9.03854223684115e+001°)
1.60324539069002e+003	(-4.39233386161056e+001dB,-9.03863137846575e+001°)
1.60694125301286e+003	(-4.39032681006244e+001dB,-9.03872072761738e+001°)
1.61064563517825e+003	(-4.38831972590954e+001dB,-9.03881028478397e+001°)
1.61435855682647e+003	(-4.38631260900081e+001dB,-9.03890005046608e+001°)
1.61808003764305e+003	(-4.38430545918456e+001dB,-9.03899002515327e+001°)
1.62181009735891e+003	(-4.38229827630835e+001dB,-9.03908020934326e+001°)
1.62554875575047e+003	(-4.38029106021904e+001dB,-9.03917060353474e+001°)
1.62929603263970e+003	(-4.37828381076280e+001dB,-9.03926120822539e+001°)
1.63305194789432e+003	(-4.37627652778506e+001dB,-9.03935202391452e+001°)
1.63681652142779e+003	(-4.37426921113054e+001dB,-9.03944305110529e+001°)
1.64058977319952e+003	(-4.37226186064323e+001dB,-9.03953429029960e+001°)
1.64437172321491e+003	(-4.37025447616642e+001dB,-9.03962574200075e+001°)
1.64816239152549e+003	(-4.36824705754264e+001dB,-9.03971740671446e+001°)
1.65196179822900e+003	(-4.36623960461371e+001dB,-9.03980928494536e+001°)
1.65576996346951e+003	(-4.36423211722070e+001dB,-9.03990137720151e+001°)
1.65958690743754e+003	(-4.36222459520395e+001dB,-9.03999368399394e+001°)
1.66341265037015e+003	(-4.36021703840306e+001dB,-9.04008620583117e+001°)
1.66724721255104e+003	(-4.35820944665688e+001dB,-9.04017894322376e+001°)
1.67109061431069e+003	(-4.35620181980351e+001dB,-9.04027189668650e+001°)
1.67494287602642e+003	(-4.35419415768029e+001dB,-9.04036506673068e+001°)
1.67880401812254e+003	(-4.35218646012382e+001dB,-9.04045845387432e+001°)
1.68267406107045e+003	(-4.35017872696992e+001dB,-9.04055205863294e+001°)
1.68655302538872e+003	(-4.34817095805366e+001dB,-9.04064588152514e+001°)
1.69044093164324e+003	(-4.34616315320935e+001dB,-9.04073992306918e+001°)
1.69433780044731e+003	(-4.34415531227052e+001dB,-9.04083418378660e+001°)
1.69824365246172e+003	(-4.34214743506991e+001dB,-9.04092866419768e+001°)
1.70215850839493e+003	(-4.34013952143952e+001dB,-9.04102336482542e+001°)
1.70608238900310e+003	(-4.33813157121052e+001dB,-9.04111828619735e+001°)
1.71001531509027e+003	(-4.33612358421334e+001dB,-9.04121342883575e+001°)
1.71395730750840e+003	(-4.33411556027760e+001dB,-9.04130879326984e+001°)
1.71790838715757e+003	(-4.33210749923213e+001dB,-9.04140438002605e+001°)
1.72186857498598e+003	(-4.33009940090495e+001dB,-9.04150018963752e+001°)
1.72583789199018e+003	(-4.32809126512330e+001dB,-9.04159622263372e+001°)
1.72981635921508e+003	(-4.32608309171362e+001dB,-9.04169247954658e+001°)
1.73380399775412e+003	(-4.32407488050153e+001dB,-9.04178896091048e+001°)
1.73780082874935e+003	(-4.32206663131182e+001dB,-9.04188566725987e+001°)
1.74180687339159e+003	(-4.32005834396851e+001dB,-9.04198259913288e+001°)
1.74582215292048e+003	(-4.31805001829476e+001dB,-9.04207975706542e+001°)
1.74984668862463e+003	(-4.31604165411293e+001dB,-9.04217714159832e+001°)
1.75388050184174e+003	(-4.31403325124455e+001dB,-9.04227475327220e+001°)
1.75792361395867e+003	(-4.31202480951031e+001dB,-9.04237259262879e+001°)
1.76197604641161e+003	(-4.31001632873006e+001dB,-9.04247066021267e+001°)
1.76603782068614e+003	(-4.30800780872286e+001dB,-9.04256895656471e+001°)
1.77010895831740e+003	(-4.30599924930686e+001dB,-9.04266748223491e+001°)
1.77418948089014e+003	(-4.30399065029940e+001dB,-9.04276623777080e+001°)
1.77827941003890e+003	(-4.30198201151697e+001dB,-9.04286522371953e+001°)
1.78237876744807e+003	(-4.29997333277520e+001dB,-9.04296444063208e+001°)
1.78648757485203e+003	(-4.29796461388885e+001dB,-9.04306388906062e+001°)
1.79060585403527e+003	(-4.29595585467186e+001dB,-9.04316356955707e+001°)
1.79473362683250e+003	(-4.29394705493725e+001dB,-9.04326348267754e+001°)
1.79887091512876e+003	(-4.29193821449719e+001dB,-9.04336362897839e+001°)
1.80301774085954e+003	(-4.28992933316299e+001dB,-9.04346400901650e+001°)
1.80717412601090e+003	(-4.28792041074507e+001dB,-9.04356462334916e+001°)
1.81134009261958e+003	(-4.28591144705296e+001dB,-9.04366547253924e+001°)
1.81551566277311e+003	(-4.28390244189532e+001dB,-9.04376655714602e+001°)
1.81970085860996e+003	(-4.28189339507991e+001dB,-9.04386787773413e+001°)
1.82389570231961e+003	(-4.27988430641358e+001dB,-9.04396943486863e+001°)
1.82810021614272e+003	(-4.27787517570231e+001dB,-9.04407122911384e+001°)
1.83231442237119e+003	(-4.27586600275115e+001dB,-9.04417326103743e+001°)
1.83653834334832e+003	(-4.27385678736428e+001dB,-9.04427553121031e+001°)
1.84077200146893e+003	(-4.27184752934490e+001dB,-9.04437804020101e+001°)
1.84501541917945e+003	(-4.26983822849538e+001dB,-9.04448078858215e+001°)
1.84926861897805e+003	(-4.26782888461709e+001dB,-9.04458377692687e+001°)
1.85353162341478e+003	(-4.26581949751053e+001dB,-9.04468700580949e+001°)
1.85780445509167e+003	(-4.26381006697523e+001dB,-9.04479047580808e+001°)
1.86208713666284e+003	(-4.26180059280983e+001dB,-9.04489418749823e+001°)
1.86637969083464e+003	(-4.25979107481199e+001dB,-9.04499814146050e+001°)
1.87068214036577e+003	(-4.25778151277846e+001dB,-9.04510233827551e+001°)
