Freq.	V(n010)/I(V1)
Step Information: 1=1  (Run: 1/11)
1.00000000000000e+003	(90364.66446860835dB,-180.061121478911°)
1.00230523807790e+003	(90364.68139373981dB,-180.061262662335°)
1.00461579027840e+003	(90364.69839711035dB,-180.06140417319°)
1.00693166885180e+003	(90364.71547908166dB,-180.061546012245°)
1.00925288607668e+003	(90364.7326400175dB,-180.061688180271°)
1.01157945425990e+003	(90364.74988028417dB,-180.061830678039°)
1.01391138573668e+003	(90364.76720024802dB,-180.061973506324°)
1.01624869287070e+003	(90364.78460027871dB,-180.062116665902°)
1.01859138805412e+003	(90364.80208074607dB,-180.06226015755°)
1.02093948370768e+003	(90364.81964202403dB,-180.062403982049°)
1.02329299228075e+003	(90364.83728448572dB,-180.06254814018°)
1.02565192625141e+003	(90364.8550085075dB,-180.062692632727°)
1.02801629812647e+003	(90364.87281446639dB,-180.062837460475°)
1.03038612044162e+003	(90364.8907027424dB,-180.062982624211°)
1.03276140576140e+003	(90364.90867371537dB,-180.063128124725°)
1.03514216667934e+003	(90364.92672777029dB,-180.063273962808°)
1.03752841581801e+003	(90364.94486528994dB,-180.063420139253°)
1.03992016582906e+003	(90364.96308666248dB,-180.063566654856°)
1.04231742939330e+003	(90364.9813922751dB,-180.063713510413°)
1.04472021922080e+003	(90364.99978251764dB,-180.063860706723°)
1.04712854805090e+003	(90365.01825778285dB,-180.064008244587°)
1.04954242865232e+003	(90365.03681846368dB,-180.064156124808°)
1.05196187382322e+003	(90365.05546495676dB,-180.064304348191°)
1.05438689639126e+003	(90365.07419765729dB,-180.064452915543°)
1.05681750921366e+003	(90365.09301696706dB,-180.064601827673°)
1.05925372517729e+003	(90365.11192328663dB,-180.06475108539°)
1.06169555719872e+003	(90365.1309170167dB,-180.064900689508°)
1.06414301822431e+003	(90365.149998565dB,-180.065050640842°)
1.06659612123026e+003	(90365.16916833725dB,-180.065200940208°)
1.06905487922266e+003	(90365.18842674156dB,-180.065351588426°)
1.07151930523761e+003	(90365.20777418769dB,-180.065502586314°)
1.07398941234124e+003	(90365.22721108893dB,-180.065653934697°)
1.07646521362983e+003	(90365.24673786134dB,-180.0658056344°)
1.07894672222983e+003	(90365.26635491801dB,-180.065957686247°)
1.08143395129794e+003	(90365.28606267834dB,-180.06611009107°)
1.08392691402120e+003	(90365.30586156336dB,-180.066262849698°)
1.08642562361706e+003	(90365.32575199415dB,-180.066415962963°)
1.08893009333343e+003	(90365.3457343947dB,-180.066569431702°)
1.09144033644875e+003	(90365.36580919195dB,-180.066723256751°)
1.09395636627209e+003	(90365.38597681218dB,-180.066877438948°)
1.09647819614318e+003	(90365.40623768748dB,-180.067031979136°)
1.09900583943252e+003	(90365.42659224835dB,-180.067186878156°)
1.10153930954141e+003	(90365.44704092896dB,-180.067342136854°)
1.10407861990207e+003	(90365.46758416628dB,-180.067497756077°)
1.10662378397766e+003	(90365.48822239612dB,-180.067653736675°)
1.10917481526240e+003	(90365.50895606079dB,-180.067810079498°)
1.11173172728159e+003	(90365.5297856017dB,-180.067966785401°)
1.11429453359173e+003	(90365.5507114628dB,-180.068123855239°)
1.11686324778056e+003	(90365.57173408954dB,-180.068281289869°)
1.11943788346715e+003	(90365.59285393164dB,-180.068439090152°)
1.12201845430196e+003	(90365.61407143936dB,-180.068597256949°)
1.12460497396692e+003	(90365.63538706349dB,-180.068755791124°)
1.12719745617551e+003	(90365.65680126079dB,-180.068914693543°)
1.12979591467279e+003	(90365.67831448666dB,-180.069073965074°)
1.13240036323555e+003	(90365.69992720046dB,-180.069233606589°)
1.13501081567231e+003	(90365.72163986295dB,-180.069393618959°)
1.13762728582343e+003	(90365.74345293715dB,-180.069554003059°)
1.14024978756117e+003	(90365.76536688814dB,-180.069714759766°)
1.14287833478977e+003	(90365.78738218315dB,-180.069875889959°)
1.14551294144553e+003	(90365.8094992926dB,-180.070037394519°)
1.14815362149688e+003	(90365.83171868765dB,-180.070199274329°)
1.15080038894443e+003	(90365.85404084185dB,-180.070361530276°)
1.15345325782109e+003	(90365.87646623299dB,-180.070524163246°)
1.15611224219210e+003	(90365.89899533741dB,-180.070687174129°)
1.15877735615512e+003	(90365.92162863699dB,-180.070850563818°)
1.16144861384034e+003	(90365.94436661451dB,-180.071014333207°)
1.16412602941049e+003	(90365.9672097548dB,-180.071178483192°)
1.16680961706096e+003	(90365.99015854493dB,-180.071343014672°)
1.16949939101987e+003	(90366.01321347487dB,-180.071507928548°)
1.17219536554813e+003	(90366.03637503707dB,-180.071673225723°)
1.17489755493953e+003	(90366.05964372447dB,-180.071838907103°)
1.17760597352080e+003	(90366.08302003356dB,-180.072004973594°)
1.18032063565173e+003	(90366.10650446489dB,-180.072171426108°)
1.18304155572516e+003	(90366.13009751769dB,-180.072338265555°)
1.18576874816716e+003	(90366.15379969677dB,-180.072505492851°)
1.18850222743701e+003	(90366.17761150692dB,-180.072673108913°)
1.19124200802737e+003	(90366.20153345683dB,-180.072841114658°)
1.19398810446427e+003	(90366.2255660563dB,-180.073009511008°)
1.19674053130724e+003	(90366.2497098186dB,-180.073178298887°)
1.19949930314937e+003	(90366.27396525964dB,-180.07334747922°)
1.20226443461741e+003	(90366.29833289642dB,-180.073517052935°)
1.20503594037179e+003	(90366.32281324963dB,-180.073687020964°)
1.20781383510678e+003	(90366.34740684145dB,-180.073857384238°)
1.21059813355048e+003	(90366.3721141961dB,-180.074028143692°)
1.21338885046497e+003	(90366.39693584148dB,-180.074199300264°)
1.21618600064636e+003	(90366.42187230714dB,-180.074370854893°)
1.21898959892486e+003	(90366.44692412656dB,-180.074542808521°)
1.22179966016487e+003	(90366.4720918332dB,-180.074715162093°)
1.22461619926504e+003	(90366.49737596439dB,-180.074887916555°)
1.22743923115840e+003	(90366.52277706059dB,-180.075061072857°)
1.23026877081238e+003	(90366.54829566379dB,-180.075234631949°)
1.23310483322890e+003	(90366.57393231906dB,-180.075408594785°)
1.23594743344450e+003	(90366.599687573dB,-180.075582962322°)
1.23879658653036e+003	(90366.62556197701dB,-180.075757735518°)
1.24165230759241e+003	(90366.65155608153dB,-180.075932915333°)
1.24451461177138e+003	(90366.67767044221dB,-180.076108502732°)
1.24738351424294e+003	(90366.70390561783dB,-180.076284498679°)
1.25025903021771e+003	(90366.7302621672dB,-180.076460904143°)
1.25314117494141e+003	(90366.75674065443dB,-180.076637720094°)
1.25602996369487e+003	(90366.78334164368dB,-180.076814947506°)
1.25892541179416e+003	(90366.81006570354dB,-180.076992587353°)
1.26182753459066e+003	(90366.8369134048dB,-180.077170640613°)
1.26473634747115e+003	(90366.8638853216dB,-180.077349108267°)
1.26765186585784e+003	(90366.89098202843dB,-180.077527991297°)
1.27057410520854e+003	(90366.91820410479dB,-180.077707290688°)
1.27350308101666e+003	(90366.94555213147dB,-180.077887007429°)
1.27643880881134e+003	(90366.97302669441dB,-180.078067142508°)
1.27938130415752e+003	(90367.00062837923dB,-180.078247696919°)
1.28233058265601e+003	(90367.02835777502dB,-180.078428671656°)
1.28528665994361e+003	(90367.05621547496dB,-180.078610067717°)
1.28824955169313e+003	(90367.08420207427dB,-180.078791886102°)
1.29121927361353e+003	(90367.11231816998dB,-180.078974127814°)
1.29419584144998e+003	(90367.14056436306dB,-180.079156793858°)
1.29717927098395e+003	(90367.16894125757dB,-180.07933988524°)
1.30016957803328e+003	(90367.19744945926dB,-180.079523402972°)
1.30316677845229e+003	(90367.2260895772dB,-180.079707348066°)
1.30617088813183e+003	(90367.254862224dB,-180.079891721537°)
1.30918192299940e+003	(90367.28376801372dB,-180.080076524402°)
1.31219989901920e+003	(90367.31280756337dB,-180.080261757682°)
1.31522483219223e+003	(90367.34198149535dB,-180.0804474224°)
1.31825673855640e+003	(90367.37129043169dB,-180.080633519581°)
1.32129563418657e+003	(90367.40073499938dB,-180.080820050253°)
1.32434153519466e+003	(90367.43031582728dB,-180.081007015447°)
1.32739445772973e+003	(90367.46003354852dB,-180.081194416196°)
1.33045441797808e+003	(90367.48988879693dB,-180.081382253536°)
1.33352143216332e+003	(90367.519882211dB,-180.081570528504°)
1.33659551654643e+003	(90367.55001443216dB,-180.081759242142°)
1.33967668742593e+003	(90367.58028610349dB,-180.081948395494°)
1.34276496113786e+003	(90367.61069787403dB,-180.082137989605°)
1.34586035405594e+003	(90367.6412503926dB,-180.082328025526°)
1.34896288259165e+003	(90367.67194431208dB,-180.082518504306°)
1.35207256319427e+003	(90367.70278028946dB,-180.082709427°)
1.35518941235103e+003	(90367.73375898336dB,-180.082900794666°)
1.35831344658715e+003	(90367.76488105592dB,-180.083092608363°)
1.36144468246594e+003	(90367.79614717372dB,-180.083284869152°)
1.36458313658892e+003	(90367.82755800315dB,-180.083477578099°)
1.36772882559584e+003	(90367.8591142182dB,-180.083670736272°)
1.37088176616484e+003	(90367.89081649245dB,-180.083864344739°)
1.37404197501251e+003	(90367.92266550417dB,-180.084058404576°)
1.37720946889394e+003	(90367.95466193304dB,-180.084252916857°)
1.38038426460288e+003	(90367.98680646597dB,-180.08444788266°)
1.38356637897177e+003	(90368.01909978842dB,-180.084643303067°)
1.38675582887188e+003	(90368.05154259157dB,-180.084839179162°)
1.38995263121334e+003	(90368.08413556861dB,-180.085035512031°)
1.39315680294529e+003	(90368.11687941775dB,-180.085232302764°)
1.39636836105593e+003	(90368.14977483902dB,-180.085429552452°)
1.39958732257261e+003	(90368.18282253639dB,-180.085627262192°)
1.40281370456195e+003	(90368.21602321503dB,-180.08582543308°)
1.40604752412990e+003	(90368.24937758817dB,-180.086024066217°)
1.40928879842186e+003	(90368.2828863662dB,-180.086223162707°)
1.41253754462274e+003	(90368.31655026838dB,-180.086422723654°)
1.41579377995707e+003	(90368.35037001382dB,-180.08662275017°)
1.41905752168908e+003	(90368.3843463268dB,-180.086823243364°)
1.42232878712281e+003	(90368.41847993342dB,-180.087024204352°)
1.42560759360218e+003	(90368.45277156463dB,-180.087225634252°)
1.42889395851109e+003	(90368.48722195301dB,-180.087427534183°)
1.43218789927353e+003	(90368.52183183837dB,-180.087629905268°)
1.43548943335364e+003	(90368.5566019583dB,-180.087832748634°)
1.43879857825583e+003	(90368.59153305946dB,-180.088036065409°)
1.44211535152486e+003	(90368.62662588773dB,-180.088239856726°)
1.44543977074592e+003	(90368.66188119439dB,-180.088444123718°)
1.44877185354475e+003	(90368.69729973517dB,-180.088648867524°)
1.45211161758773e+003	(90368.7328822674dB,-180.088854089284°)
1.45545908058195e+003	(90368.76862955201dB,-180.08905979014°)
1.45881426027534e+003	(90368.80454235616dB,-180.089265971241°)
1.46217717445671e+003	(90368.84062144646dB,-180.089472633734°)
1.46554784095590e+003	(90368.8768675962dB,-180.089679778771°)
1.46892627764385e+003	(90368.91328158215dB,-180.089887407509°)
1.47231250243271e+003	(90368.94986418205dB,-180.090095521105°)
1.47570653327588e+003	(90368.98661618118dB,-180.09030412072°)
1.47910838816819e+003	(90369.02353836484dB,-180.090513207519°)
1.48251808514594e+003	(90369.06063152516dB,-180.090722782667°)
1.48593564228699e+003	(90369.09789645523dB,-180.090932847336°)
1.48936107771090e+003	(90369.13533395439dB,-180.091143402698°)
1.49279440957898e+003	(90369.1729448227dB,-180.091354449929°)
1.49623565609442e+003	(90369.21072986658dB,-180.091565990209°)
1.49968483550236e+003	(90369.24868989499dB,-180.091778024719°)
1.50314196609001e+003	(90369.28682572149dB,-180.091990554645°)
1.50660706618673e+003	(90369.32513816211dB,-180.092203581175°)
1.51008015416413e+003	(90369.363628038dB,-180.0924171055°)
1.51356124843619e+003	(90369.40229617443dB,-180.092631128814°)
1.51705036745932e+003	(90369.44114339865dB,-180.092845652315°)
1.52054752973248e+003	(90369.4801705422dB,-180.093060677204°)
1.52405275379728e+003	(90369.51937844288dB,-180.093276204683°)
1.52756605823806e+003	(90369.55876794075dB,-180.09349223596°)
1.53108746168201e+003	(90369.59833987843dB,-180.093708772245°)
1.53461698279928e+003	(90369.63809510427dB,-180.093925814749°)
1.53815464030302e+003	(90369.6780344707dB,-180.094143364691°)
1.54170045294954e+003	(90369.7181588331dB,-180.094361423288°)
1.54525443953840e+003	(90369.75846905205dB,-180.094579991763°)
1.54881661891247e+003	(90369.79896599051dB,-180.094799071342°)
1.55238700995807e+003	(90369.83965051625dB,-180.095018663254°)
1.55596563160506e+003	(90369.88052350261dB,-180.09523876873°)
1.55955250282694e+003	(90369.92158582585dB,-180.095459389005°)
1.56314764264094e+003	(90369.96283836414dB,-180.095680525318°)
1.56675107010813e+003	(90370.00428200336dB,-180.095902178911°)
1.57036280433354e+003	(90370.04591763124dB,-180.096124351027°)
1.57398286446620e+003	(90370.08774614167dB,-180.096347042916°)
1.57761126969933e+003	(90370.1297684296dB,-180.096570255828°)
1.58124803927037e+003	(90370.17198539646dB,-180.096793991018°)
1.58489319246110e+003	(90370.21439794886dB,-180.097018249743°)
1.58854674859776e+003	(90370.25700699529dB,-180.097243033265°)
1.59220872705115e+003	(90370.29981344918dB,-180.097468342848°)
1.59587914723672e+003	(90370.34281822882dB,-180.09769417976°)
1.59955802861465e+003	(90370.38602225634dB,-180.097920545271°)
1.60324539069002e+003	(90370.4294264589dB,-180.098147440656°)
1.60694125301286e+003	(90370.47303176788dB,-180.098374867193°)
1.61064563517825e+003	(90370.5168391171dB,-180.098602826161°)
1.61435855682647e+003	(90370.56084944628dB,-180.098831318847°)
1.61808003764305e+003	(90370.60506370141dB,-180.099060346536°)
1.62181009735891e+003	(90370.64948282925dB,-180.09928991052°)
1.62554875575047e+003	(90370.69410778378dB,-180.099520012094°)
1.62929603263970e+003	(90370.73893952115dB,-180.099750652555°)
1.63305194789432e+003	(90370.78397900496dB,-180.099981833205°)
1.63681652142779e+003	(90370.82922720027dB,-180.100213555347°)
1.64058977319952e+003	(90370.87468508008dB,-180.10044582029°)
1.64437172321491e+003	(90370.9203536176dB,-180.100678629346°)
1.64816239152549e+003	(90370.96623379305dB,-180.100911983829°)
1.65196179822900e+003	(90371.01232659294dB,-180.101145885058°)
1.65576996346951e+003	(90371.05863300545dB,-180.101380334354°)
1.65958690743754e+003	(90371.10515402432dB,-180.101615333042°)
1.66341265037015e+003	(90371.15189064863dB,-180.101850882452°)
1.66724721255104e+003	(90371.19884388172dB,-180.102086983915°)
1.67109061431069e+003	(90371.24601473102dB,-180.102323638768°)
1.67494287602642e+003	(90371.29340421059dB,-180.10256084835°)
1.67880401812254e+003	(90371.34101333562dB,-180.102798614002°)
1.68267406107045e+003	(90371.38884313074dB,-180.103036937073°)
1.68655302538872e+003	(90371.43689462221dB,-180.103275818912°)
1.69044093164324e+003	(90371.48516884113dB,-180.103515260871°)
1.69433780044731e+003	(90371.53366682524dB,-180.103755264309°)
1.69824365246172e+003	(90371.58238961452dB,-180.103995830586°)
1.70215850839493e+003	(90371.63133825798dB,-180.104236961066°)
1.70608238900310e+003	(90371.68051380469dB,-180.104478657117°)
1.71001531509027e+003	(90371.72991731217dB,-180.104720920111°)
1.71395730750840e+003	(90371.77954984202dB,-180.104963751422°)
1.71790838715757e+003	(90371.82941245919dB,-180.105207152429°)
1.72186857498598e+003	(90371.87950623622dB,-180.105451124516°)
1.72583789199018e+003	(90371.929832248dB,-180.105695669067°)
1.72981635921508e+003	(90371.98039157725dB,-180.105940787473°)
1.73380399775412e+003	(90372.03118531019dB,-180.106186481127°)
1.73780082874935e+003	(90372.08221453837dB,-180.106432751427°)
1.74180687339159e+003	(90372.13348035765dB,-180.106679599773°)
1.74582215292048e+003	(90372.1849838705dB,-180.106927027569°)
1.74984668862463e+003	(90372.23672618311dB,-180.107175036225°)
1.75388050184174e+003	(90372.28870840925dB,-180.107423627153°)
1.75792361395867e+003	(90372.34093166492dB,-180.107672801767°)
1.76197604641161e+003	(90372.39339707387dB,-180.107922561489°)
1.76603782068614e+003	(90372.44610576359dB,-180.108172907741°)
1.77010895831740e+003	(90372.49905886651dB,-180.108423841951°)
1.77418948089014e+003	(90372.55225752213dB,-180.10867536555°)
1.77827941003890e+003	(90372.60570287342dB,-180.108927479972°)
1.78237876744807e+003	(90372.65939607155dB,-180.109180186657°)
1.78648757485203e+003	(90372.71333826988dB,-180.109433487047°)
1.79060585403527e+003	(90372.76753062897dB,-180.109687382589°)
1.79473362683250e+003	(90372.82197431347dB,-180.109941874732°)
1.79887091512876e+003	(90372.87667049615dB,-180.110196964932°)
1.80301774085954e+003	(90372.93162035165dB,-180.110452654646°)
1.80717412601090e+003	(90372.98682506404dB,-180.110708945337°)
1.81134009261958e+003	(90373.04228581907dB,-180.110965838471°)
1.81551566277311e+003	(90373.09800381168dB,-180.111223335516°)
1.81970085860996e+003	(90373.15398023985dB,-180.111481437948°)
1.82389570231961e+003	(90373.21021630889dB,-180.111740147245°)
1.82810021614272e+003	(90373.2667132273dB,-180.111999464887°)
1.83231442237119e+003	(90373.32347221283dB,-180.112259392362°)
1.83653834334832e+003	(90373.38049448651dB,-180.112519931159°)
1.84077200146893e+003	(90373.43778127554dB,-180.112781082771°)
1.84501541917945e+003	(90373.49533381245dB,-180.113042848697°)
1.84926861897805e+003	(90373.55315333662dB,-180.113305230439°)
1.85353162341478e+003	(90373.61124109334dB,-180.113568229503°)
1.85780445509167e+003	(90373.66959833348dB,-180.113831847399°)
1.86208713666284e+003	(90373.72822631248dB,-180.11409608564°)
1.86637969083464e+003	(90373.78712629288dB,-180.114360945747°)
1.87068214036577e+003	(90373.84629954366dB,-180.11462642924°)
1.87499450806739e+003	(90373.90574733877dB,-180.114892537647°)
1.87931681680324e+003	(90373.96547095959dB,-180.115159272499°)
1.88364908948977e+003	(90374.02547169085dB,-180.115426635329°)
1.88799134909627e+003	(90374.08575082594dB,-180.115694627678°)
1.89234361864495e+003	(90374.14630966343dB,-180.115963251089°)
1.89670592121112e+003	(90374.20714950819dB,-180.116232507108°)
1.90107827992327e+003	(90374.26827167085dB,-180.116502397288°)
1.90546071796322e+003	(90374.32967746718dB,-180.116772923185°)
1.90985325856621e+003	(90374.3913682222dB,-180.117044086359°)
1.91425592502106e+003	(90374.45334526543dB,-180.117315888374°)
1.91866874067026e+003	(90374.51560993021dB,-180.117588330799°)
1.92309172891013e+003	(90374.57816356118dB,-180.117861415206°)
1.92752491319091e+003	(90374.6410075056dB,-180.118135143174°)
1.93196831701689e+003	(90374.70414311772dB,-180.118409516284°)
1.93642196394658e+003	(90374.76757175996dB,-180.118684536122°)
1.94088587759275e+003	(90374.83129479807dB,-180.118960204278°)
1.94536008162263e+003	(90374.89531360612dB,-180.119236522346°)
1.94984459975802e+003	(90374.95962956685dB,-180.119513491927°)
1.95433945577536e+003	(90375.02424406524dB,-180.119791114622°)
1.95884467350596e+003	(90375.08915849445dB,-180.120069392041°)
1.96336027683602e+003	(90375.15437425644dB,-180.120348325796°)
1.96788628970681e+003	(90375.21989275566dB,-180.120627917502°)
1.97242273611482e+003	(90375.2857154076dB,-180.120908168782°)
1.97696964011183e+003	(90375.35184363037dB,-180.12118908126°)
1.98152702580507e+003	(90375.41827885188dB,-180.121470656568°)
1.98609491735734e+003	(90375.48502250465dB,-180.121752896339°)
1.99067333898715e+003	(90375.55207602956dB,-180.122035802214°)
1.99526231496885e+003	(90375.6194408743dB,-180.122319375834°)
1.99986186963271e+003	(90375.6871184903dB,-180.12260361885°)
2.00447202736513e+003	(90375.75511034098dB,-180.122888532913°)
2.00909281260870e+003	(90375.82341789329dB,-180.123174119681°)
2.01372424986236e+003	(90375.89204261992dB,-180.123460380816°)
2.01836636368153e+003	(90375.96098600465dB,-180.123747317985°)
2.02301917867824e+003	(90376.03024953385dB,-180.124034932858°)
2.02768271952125e+003	(90376.09983470541dB,-180.124323227112°)
2.03235701093619e+003	(90376.16974302086dB,-180.124612202427°)
2.03704207770568e+003	(90376.23997598933dB,-180.124901860489°)
2.04173794466950e+003	(90376.31053512773dB,-180.125192202986°)
2.04644463672464e+003	(90376.38142196188dB,-180.125483231615°)
2.05116217882553e+003	(90376.4526380205dB,-180.125774948074°)
2.05589059598411e+003	(90376.52418484402dB,-180.126067354067°)
2.06062991326997e+003	(90376.59606397728dB,-180.126360451303°)
2.06538015581049e+003	(90376.66827697256dB,-180.126654241496°)
2.07014134879101e+003	(90376.74082539263dB,-180.126948726364°)
