Freq.	V(n010)/I(V1)
Step Information: 1=1  (Run: 1/11)
1.00000000000000e+003	(9.91199728072272e+001dB,1.79938878521089e+002°)
1.00230523807790e+003	(9.91199744340778e+001dB,1.79938737337665e+002°)
1.00461579027840e+003	(9.91199760684485e+001dB,1.79938595826810e+002°)
1.00693166885180e+003	(9.91199777103740e+001dB,1.79938453987755e+002°)
1.00925288607668e+003	(9.91199793598893e+001dB,1.79938311819729e+002°)
1.01157945425990e+003	(9.91199810170296e+001dB,1.79938169321961e+002°)
1.01391138573668e+003	(9.91199826818301e+001dB,1.79938026493676e+002°)
1.01624869287070e+003	(9.91199843543263e+001dB,1.79937883334098e+002°)
1.01859138805412e+003	(9.91199860345538e+001dB,1.79937739842450e+002°)
1.02093948370768e+003	(9.91199877225485e+001dB,1.79937596017951e+002°)
1.02329299228075e+003	(9.91199894183463e+001dB,1.79937451859820e+002°)
1.02565192625141e+003	(9.91199911219833e+001dB,1.79937307367273e+002°)
1.02801629812647e+003	(9.91199928334958e+001dB,1.79937162539525e+002°)
1.03038612044162e+003	(9.91199945529203e+001dB,1.79937017375789e+002°)
1.03276140576140e+003	(9.91199962802933e+001dB,1.79936871875275e+002°)
1.03514216667934e+003	(9.91199980156518e+001dB,1.79936726037192e+002°)
1.03752841581801e+003	(9.91199997590326e+001dB,1.79936579860747e+002°)
1.03992016582906e+003	(9.91200015104730e+001dB,1.79936433345144e+002°)
1.04231742939330e+003	(9.91200032700102e+001dB,1.79936286489587e+002°)
1.04472021922080e+003	(9.91200050376817e+001dB,1.79936139293277e+002°)
1.04712854805090e+003	(9.91200068135252e+001dB,1.79935991755413e+002°)
1.04954242865232e+003	(9.91200085975785e+001dB,1.79935843875192e+002°)
1.05196187382322e+003	(9.91200103898797e+001dB,1.79935695651809e+002°)
1.05438689639126e+003	(9.91200121904668e+001dB,1.79935547084457e+002°)
1.05681750921366e+003	(9.91200139993784e+001dB,1.79935398172327e+002°)
1.05925372517729e+003	(9.91200158166530e+001dB,1.79935248914610e+002°)
1.06169555719872e+003	(9.91200176423291e+001dB,1.79935099310492e+002°)
1.06414301822431e+003	(9.91200194764459e+001dB,1.79934949359158e+002°)
1.06659612123026e+003	(9.91200213190424e+001dB,1.79934799059792e+002°)
1.06905487922266e+003	(9.91200231701578e+001dB,1.79934648411574e+002°)
1.07151930523761e+003	(9.91200250298315e+001dB,1.79934497413686e+002°)
1.07398941234124e+003	(9.91200268981032e+001dB,1.79934346065303e+002°)
1.07646521362983e+003	(9.91200287750129e+001dB,1.79934194365600e+002°)
1.07894672222983e+003	(9.91200306606003e+001dB,1.79934042313753e+002°)
1.08143395129794e+003	(9.91200325549057e+001dB,1.79933889908930e+002°)
1.08392691402120e+003	(9.91200344579696e+001dB,1.79933737150302e+002°)
1.08642562361706e+003	(9.91200363698324e+001dB,1.79933584037037e+002°)
1.08893009333343e+003	(9.91200382905349e+001dB,1.79933430568298e+002°)
1.09144033644875e+003	(9.91200402201181e+001dB,1.79933276743249e+002°)
1.09395636627209e+003	(9.91200421586230e+001dB,1.79933122561052e+002°)
1.09647819614318e+003	(9.91200441060911e+001dB,1.79932968020864e+002°)
1.09900583943252e+003	(9.91200460625638e+001dB,1.79932813121844e+002°)
1.10153930954141e+003	(9.91200480280828e+001dB,1.79932657863146e+002°)
1.10407861990207e+003	(9.91200500026901e+001dB,1.79932502243923e+002°)
1.10662378397766e+003	(9.91200519864276e+001dB,1.79932346263325e+002°)
1.10917481526240e+003	(9.91200539793378e+001dB,1.79932189920502e+002°)
1.11173172728159e+003	(9.91200559814631e+001dB,1.79932033214599e+002°)
1.11429453359173e+003	(9.91200579928462e+001dB,1.79931876144761e+002°)
1.11686324778056e+003	(9.91200600135299e+001dB,1.79931718710131e+002°)
1.11943788346715e+003	(9.91200620435574e+001dB,1.79931560909848e+002°)
1.12201845430196e+003	(9.91200640829720e+001dB,1.79931402743051e+002°)
1.12460497396692e+003	(9.91200661318170e+001dB,1.79931244208876e+002°)
1.12719745617551e+003	(9.91200681901363e+001dB,1.79931085306457e+002°)
1.12979591467279e+003	(9.91200702579737e+001dB,1.79930926034926e+002°)
1.13240036323555e+003	(9.91200723353733e+001dB,1.79930766393411e+002°)
1.13501081567231e+003	(9.91200744223794e+001dB,1.79930606381041e+002°)
1.13762728582343e+003	(9.91200765190365e+001dB,1.79930445996941e+002°)
1.14024978756117e+003	(9.91200786253893e+001dB,1.79930285240234e+002°)
1.14287833478977e+003	(9.91200807414827e+001dB,1.79930124110041e+002°)
1.14551294144553e+003	(9.91200828673619e+001dB,1.79929962605481e+002°)
1.14815362149688e+003	(9.91200850030722e+001dB,1.79929800725671e+002°)
1.15080038894443e+003	(9.91200871486591e+001dB,1.79929638469724e+002°)
1.15345325782109e+003	(9.91200893041685e+001dB,1.79929475836754e+002°)
1.15611224219210e+003	(9.91200914696462e+001dB,1.79929312825871e+002°)
1.15877735615512e+003	(9.91200936451385e+001dB,1.79929149436182e+002°)
1.16144861384034e+003	(9.91200958306918e+001dB,1.79928985666793e+002°)
1.16412602941049e+003	(9.91200980263527e+001dB,1.79928821516808e+002°)
1.16680961706096e+003	(9.91201002321680e+001dB,1.79928656985328e+002°)
1.16949939101987e+003	(9.91201024481848e+001dB,1.79928492071452e+002°)
1.17219536554813e+003	(9.91201046744504e+001dB,1.79928326774277e+002°)
1.17489755493953e+003	(9.91201069110122e+001dB,1.79928161092897e+002°)
1.17760597352080e+003	(9.91201091579179e+001dB,1.79927995026406e+002°)
1.18032063565173e+003	(9.91201114152156e+001dB,1.79927828573892e+002°)
1.18304155572516e+003	(9.91201136829533e+001dB,1.79927661734445e+002°)
1.18576874816716e+003	(9.91201159611795e+001dB,1.79927494507149e+002°)
1.18850222743701e+003	(9.91201182499427e+001dB,1.79927326891087e+002°)
1.19124200802737e+003	(9.91201205492918e+001dB,1.79927158885342e+002°)
1.19398810446427e+003	(9.91201228592758e+001dB,1.79926990488992e+002°)
1.19674053130724e+003	(9.91201251799440e+001dB,1.79926821701113e+002°)
1.19949930314937e+003	(9.91201275113460e+001dB,1.79926652520780e+002°)
1.20226443461741e+003	(9.91201298535315e+001dB,1.79926482947065e+002°)
1.20503594037179e+003	(9.91201322065505e+001dB,1.79926312979036e+002°)
1.20781383510678e+003	(9.91201345704532e+001dB,1.79926142615762e+002°)
1.21059813355048e+003	(9.91201369452900e+001dB,1.79925971856308e+002°)
1.21338885046497e+003	(9.91201393311116e+001dB,1.79925800699736e+002°)
1.21618600064636e+003	(9.91201417279689e+001dB,1.79925629145107e+002°)
1.21898959892486e+003	(9.91201441359132e+001dB,1.79925457191479e+002°)
1.22179966016487e+003	(9.91201465549957e+001dB,1.79925284837907e+002°)
1.22461619926504e+003	(9.91201489852681e+001dB,1.79925112083445e+002°)
1.22743923115840e+003	(9.91201514267823e+001dB,1.79924938927143e+002°)
1.23026877081238e+003	(9.91201538795904e+001dB,1.79924765368051e+002°)
1.23310483322890e+003	(9.91201563437448e+001dB,1.79924591405215e+002°)
1.23594743344450e+003	(9.91201588192980e+001dB,1.79924417037678e+002°)
1.23879658653036e+003	(9.91201613063030e+001dB,1.79924242264482e+002°)
1.24165230759241e+003	(9.91201638048127e+001dB,1.79924067084667e+002°)
1.24451461177138e+003	(9.91201663148805e+001dB,1.79923891497268e+002°)
1.24738351424294e+003	(9.91201688365601e+001dB,1.79923715501321e+002°)
1.25025903021771e+003	(9.91201713699052e+001dB,1.79923539095857e+002°)
1.25314117494141e+003	(9.91201739149700e+001dB,1.79923362279906e+002°)
1.25602996369487e+003	(9.91201764718087e+001dB,1.79923185052494e+002°)
1.25892541179416e+003	(9.91201790404760e+001dB,1.79923007412647e+002°)
1.26182753459066e+003	(9.91201816210267e+001dB,1.79922829359387e+002°)
1.26473634747115e+003	(9.91201842135160e+001dB,1.79922650891733e+002°)
1.26765186585784e+003	(9.91201868179991e+001dB,1.79922472008703e+002°)
1.27057410520854e+003	(9.91201894345317e+001dB,1.79922292709312e+002°)
1.27350308101666e+003	(9.91201920631696e+001dB,1.79922112992571e+002°)
1.27643880881134e+003	(9.91201947039691e+001dB,1.79921932857492e+002°)
1.27938130415752e+003	(9.91201973569865e+001dB,1.79921752303081e+002°)
1.28233058265601e+003	(9.91202000222784e+001dB,1.79921571328344e+002°)
1.28528665994361e+003	(9.91202026999018e+001dB,1.79921389932283e+002°)
1.28824955169313e+003	(9.91202053899139e+001dB,1.79921208113898e+002°)
1.29121927361353e+003	(9.91202080923721e+001dB,1.79921025872186e+002°)
1.29419584144998e+003	(9.91202108073341e+001dB,1.79920843206142e+002°)
1.29717927098395e+003	(9.91202135348580e+001dB,1.79920660114760e+002°)
1.30016957803328e+003	(9.91202162750020e+001dB,1.79920476597028e+002°)
1.30316677845229e+003	(9.91202190278246e+001dB,1.79920292651934e+002°)
1.30617088813183e+003	(9.91202217933847e+001dB,1.79920108278463e+002°)
1.30918192299940e+003	(9.91202245717413e+001dB,1.79919923475598e+002°)
1.31219989901920e+003	(9.91202273629537e+001dB,1.79919738242318e+002°)
1.31522483219223e+003	(9.91202301670817e+001dB,1.79919552577600e+002°)
1.31825673855640e+003	(9.91202329841851e+001dB,1.79919366480419e+002°)
1.32129563418657e+003	(9.91202358143241e+001dB,1.79919179949747e+002°)
1.32434153519466e+003	(9.91202386575592e+001dB,1.79918992984553e+002°)
1.32739445772973e+003	(9.91202415139512e+001dB,1.79918805583804e+002°)
1.33045441797808e+003	(9.91202443835610e+001dB,1.79918617746464e+002°)
1.33352143216332e+003	(9.91202472664500e+001dB,1.79918429471496e+002°)
1.33659551654643e+003	(9.91202501626798e+001dB,1.79918240757858e+002°)
1.33967668742593e+003	(9.91202530723122e+001dB,1.79918051604506e+002°)
1.34276496113786e+003	(9.91202559954096e+001dB,1.79917862010395e+002°)
1.34586035405594e+003	(9.91202589320343e+001dB,1.79917671974474e+002°)
1.34896288259165e+003	(9.91202618822491e+001dB,1.79917481495694e+002°)
1.35207256319427e+003	(9.91202648461171e+001dB,1.79917290573000e+002°)
1.35518941235103e+003	(9.91202678237016e+001dB,1.79917099205334e+002°)
1.35831344658715e+003	(9.91202708150662e+001dB,1.79916907391637e+002°)
1.36144468246594e+003	(9.91202738202750e+001dB,1.79916715130848e+002°)
1.36458313658892e+003	(9.91202768393920e+001dB,1.79916522421901e+002°)
1.36772882559584e+003	(9.91202798724820e+001dB,1.79916329263728e+002°)
1.37088176616484e+003	(9.91202829196097e+001dB,1.79916135655261e+002°)
1.37404197501251e+003	(9.91202859808403e+001dB,1.79915941595424e+002°)
1.37720946889394e+003	(9.91202890562391e+001dB,1.79915747083143e+002°)
1.38038426460288e+003	(9.91202921458721e+001dB,1.79915552117340e+002°)
1.38356637897177e+003	(9.91202952498052e+001dB,1.79915356696933e+002°)
1.38675582887188e+003	(9.91202983681048e+001dB,1.79915160820838e+002°)
1.38995263121334e+003	(9.91203015008375e+001dB,1.79914964487969e+002°)
1.39315680294529e+003	(9.91203046480704e+001dB,1.79914767697236e+002°)
1.39636836105593e+003	(9.91203078098708e+001dB,1.79914570447548e+002°)
1.39958732257261e+003	(9.91203109863063e+001dB,1.79914372737808e+002°)
1.40281370456195e+003	(9.91203141774447e+001dB,1.79914174566920e+002°)
1.40604752412990e+003	(9.91203173833545e+001dB,1.79913975933783e+002°)
1.40928879842186e+003	(9.91203206041040e+001dB,1.79913776837293e+002°)
1.41253754462274e+003	(9.91203238397623e+001dB,1.79913577276346e+002°)
1.41579377995707e+003	(9.91203270903985e+001dB,1.79913377249830e+002°)
1.41905752168908e+003	(9.91203303560822e+001dB,1.79913176756636e+002°)
1.42232878712281e+003	(9.91203336368832e+001dB,1.79912975795648e+002°)
1.42560759360218e+003	(9.91203369328717e+001dB,1.79912774365748e+002°)
1.42889395851109e+003	(9.91203402441181e+001dB,1.79912572465817e+002°)
1.43218789927353e+003	(9.91203435706935e+001dB,1.79912370094732e+002°)
1.43548943335364e+003	(9.91203469126688e+001dB,1.79912167251366e+002°)
1.43879857825583e+003	(9.91203502701157e+001dB,1.79911963934591e+002°)
1.44211535152486e+003	(9.91203536431059e+001dB,1.79911760143274e+002°)
1.44543977074592e+003	(9.91203570317116e+001dB,1.79911555876282e+002°)
1.44877185354475e+003	(9.91203604360054e+001dB,1.79911351132476e+002°)
1.45211161758773e+003	(9.91203638560601e+001dB,1.79911145910716e+002°)
1.45545908058195e+003	(9.91203672919488e+001dB,1.79910940209860e+002°)
1.45881426027534e+003	(9.91203707437452e+001dB,1.79910734028759e+002°)
1.46217717445671e+003	(9.91203742115230e+001dB,1.79910527366266e+002°)
1.46554784095590e+003	(9.91203776953565e+001dB,1.79910320221229e+002°)
1.46892627764385e+003	(9.91203811953203e+001dB,1.79910112592491e+002°)
1.47231250243271e+003	(9.91203847114892e+001dB,1.79909904478895e+002°)
1.47570653327588e+003	(9.91203882439386e+001dB,1.79909695879280e+002°)
1.47910838816819e+003	(9.91203917927440e+001dB,1.79909486792481e+002°)
1.48251808514594e+003	(9.91203953579815e+001dB,1.79909277217333e+002°)
1.48593564228699e+003	(9.91203989397273e+001dB,1.79909067152664e+002°)
1.48936107771090e+003	(9.91204025380582e+001dB,1.79908856597302e+002°)
1.49279440957898e+003	(9.91204061530511e+001dB,1.79908645550071e+002°)
1.49623565609442e+003	(9.91204097847835e+001dB,1.79908434009791e+002°)
1.49968483550236e+003	(9.91204134333331e+001dB,1.79908221975281e+002°)
1.50314196609001e+003	(9.91204170987781e+001dB,1.79908009445355e+002°)
1.50660706618673e+003	(9.91204207811969e+001dB,1.79907796418825e+002°)
1.51008015416413e+003	(9.91204244806684e+001dB,1.79907582894500e+002°)
1.51356124843619e+003	(9.91204281972719e+001dB,1.79907368871186e+002°)
1.51705036745932e+003	(9.91204319310869e+001dB,1.79907154347685e+002°)
1.52054752973248e+003	(9.91204356821933e+001dB,1.79906939322796e+002°)
1.52405275379728e+003	(9.91204394506716e+001dB,1.79906723795317e+002°)
1.52756605823806e+003	(9.91204432366025e+001dB,1.79906507764040e+002°)
1.53108746168201e+003	(9.91204470400670e+001dB,1.79906291227755e+002°)
1.53461698279928e+003	(9.91204508611466e+001dB,1.79906074185251e+002°)
1.53815464030302e+003	(9.91204546999232e+001dB,1.79905856635309e+002°)
1.54170045294954e+003	(9.91204585564790e+001dB,1.79905638576712e+002°)
1.54525443953840e+003	(9.91204624308967e+001dB,1.79905420008237e+002°)
1.54881661891247e+003	(9.91204663232592e+001dB,1.79905200928658e+002°)
1.55238700995807e+003	(9.91204702336499e+001dB,1.79904981336746e+002°)
1.55596563160506e+003	(9.91204741621527e+001dB,1.79904761231270e+002°)
1.55955250282694e+003	(9.91204781088518e+001dB,1.79904540610995e+002°)
1.56314764264094e+003	(9.91204820738316e+001dB,1.79904319474682e+002°)
1.56675107010813e+003	(9.91204860571772e+001dB,1.79904097821089e+002°)
1.57036280433354e+003	(9.91204900589739e+001dB,1.79903875648973e+002°)
1.57398286446620e+003	(9.91204940793076e+001dB,1.79903652957084e+002°)
1.57761126969933e+003	(9.91204981182643e+001dB,1.79903429744172e+002°)
1.58124803927037e+003	(9.91205021759306e+001dB,1.79903206008982e+002°)
1.58489319246110e+003	(9.91205062523936e+001dB,1.79902981750257e+002°)
1.58854674859776e+003	(9.91205103477406e+001dB,1.79902756966735e+002°)
1.59220872705115e+003	(9.91205144620594e+001dB,1.79902531657152e+002°)
1.59587914723672e+003	(9.91205185954382e+001dB,1.79902305820240e+002°)
1.59955802861465e+003	(9.91205227479656e+001dB,1.79902079454729e+002°)
1.60324539069002e+003	(9.91205269197307e+001dB,1.79901852559344e+002°)
1.60694125301286e+003	(9.91205311108230e+001dB,1.79901625132807e+002°)
1.61064563517825e+003	(9.91205353213322e+001dB,1.79901397173839e+002°)
1.61435855682647e+003	(9.91205395513486e+001dB,1.79901168681153e+002°)
1.61808003764305e+003	(9.91205438009631e+001dB,1.79900939653464e+002°)
1.62181009735891e+003	(9.91205480702667e+001dB,1.79900710089480e+002°)
1.62554875575047e+003	(9.91205523593510e+001dB,1.79900479987906e+002°)
1.62929603263970e+003	(9.91205566683079e+001dB,1.79900249347445e+002°)
1.63305194789432e+003	(9.91205609972300e+001dB,1.79900018166795e+002°)
1.63681652142779e+003	(9.91205653462100e+001dB,1.79899786444653e+002°)
1.64058977319952e+003	(9.91205697153414e+001dB,1.79899554179710e+002°)
1.64437172321491e+003	(9.91205741047177e+001dB,1.79899321370654e+002°)
1.64816239152549e+003	(9.91205785144331e+001dB,1.79899088016171e+002°)
1.65196179822900e+003	(9.91205829445824e+001dB,1.79898854114942e+002°)
1.65576996346951e+003	(9.91205873952605e+001dB,1.79898619665646e+002°)
1.65958690743754e+003	(9.91205918665629e+001dB,1.79898384666958e+002°)
1.66341265037015e+003	(9.91205963585856e+001dB,1.79898149117548e+002°)
1.66724721255104e+003	(9.91206008714250e+001dB,1.79897913016085e+002°)
1.67109061431069e+003	(9.91206054051779e+001dB,1.79897676361232e+002°)
1.67494287602642e+003	(9.91206099599417e+001dB,1.79897439151650e+002°)
1.67880401812254e+003	(9.91206145358140e+001dB,1.79897201385998e+002°)
1.68267406107045e+003	(9.91206191328932e+001dB,1.79896963062927e+002°)
1.68655302538872e+003	(9.91206237512779e+001dB,1.79896724181088e+002°)
1.69044093164324e+003	(9.91206283910672e+001dB,1.79896484739129e+002°)
1.69433780044731e+003	(9.91206330523608e+001dB,1.79896244735691e+002°)
1.69824365246172e+003	(9.91206377352586e+001dB,1.79896004169414e+002°)
1.70215850839493e+003	(9.91206424398614e+001dB,1.79895763038934e+002°)
1.70608238900310e+003	(9.91206471662700e+001dB,1.79895521342883e+002°)
1.71001531509027e+003	(9.91206519145860e+001dB,1.79895279079889e+002°)
1.71395730750840e+003	(9.91206566849114e+001dB,1.79895036248578e+002°)
1.71790838715757e+003	(9.91206614773485e+001dB,1.79894792847571e+002°)
1.72186857498598e+003	(9.91206662920004e+001dB,1.79894548875484e+002°)
1.72583789199018e+003	(9.91206711289703e+001dB,1.79894304330933e+002°)
1.72981635921508e+003	(9.91206759883623e+001dB,1.79894059212527e+002°)
1.73380399775412e+003	(9.91206808702807e+001dB,1.79893813518873e+002°)
1.73780082874935e+003	(9.91206857748304e+001dB,1.79893567248573e+002°)
1.74180687339159e+003	(9.91206907021167e+001dB,1.79893320400227e+002°)
1.74582215292048e+003	(9.91206956522455e+001dB,1.79893072972431e+002°)
1.74984668862463e+003	(9.91207006253231e+001dB,1.79892824963775e+002°)
1.75388050184174e+003	(9.91207056214565e+001dB,1.79892576372847e+002°)
1.75792361395867e+003	(9.91207106407529e+001dB,1.79892327198233e+002°)
1.76197604641161e+003	(9.91207156833203e+001dB,1.79892077438511e+002°)
1.76603782068614e+003	(9.91207207492670e+001dB,1.79891827092259e+002°)
1.77010895831740e+003	(9.91207258387018e+001dB,1.79891576158049e+002°)
1.77418948089014e+003	(9.91207309517342e+001dB,1.79891324634450e+002°)
1.77827941003890e+003	(9.91207360884740e+001dB,1.79891072520028e+002°)
1.78237876744807e+003	(9.91207412490318e+001dB,1.79890819813343e+002°)
1.78648757485203e+003	(9.91207464335184e+001dB,1.79890566512953e+002°)
1.79060585403527e+003	(9.91207516420453e+001dB,1.79890312617411e+002°)
1.79473362683250e+003	(9.91207568747244e+001dB,1.79890058125268e+002°)
1.79887091512876e+003	(9.91207621316684e+001dB,1.79889803035068e+002°)
1.80301774085954e+003	(9.91207674129901e+001dB,1.79889547345354e+002°)
1.80717412601090e+003	(9.91207727188033e+001dB,1.79889291054663e+002°)
1.81134009261958e+003	(9.91207780492219e+001dB,1.79889034161529e+002°)
1.81551566277311e+003	(9.91207834043607e+001dB,1.79888776664484e+002°)
1.81970085860996e+003	(9.91207887843348e+001dB,1.79888518562052e+002°)
1.82389570231961e+003	(9.91207941892600e+001dB,1.79888259852755e+002°)
1.82810021614272e+003	(9.91207996192524e+001dB,1.79888000535113e+002°)
1.83231442237119e+003	(9.91208050744290e+001dB,1.79887740607638e+002°)
1.83653834334832e+003	(9.91208105549071e+001dB,1.79887480068841e+002°)
1.84077200146893e+003	(9.91208160608046e+001dB,1.79887218917229e+002°)
1.84501541917945e+003	(9.91208215922399e+001dB,1.79886957151303e+002°)
1.84926861897805e+003	(9.91208271493321e+001dB,1.79886694769561e+002°)
1.85353162341478e+003	(9.91208327322008e+001dB,1.79886431770497e+002°)
1.85780445509167e+003	(9.91208383409662e+001dB,1.79886168152601e+002°)
1.86208713666284e+003	(9.91208439757489e+001dB,1.79885903914360e+002°)
1.86637969083464e+003	(9.91208496366702e+001dB,1.79885639054253e+002°)
1.87068214036577e+003	(9.91208553238520e+001dB,1.79885373570760e+002°)
1.87499450806739e+003	(9.91208610374167e+001dB,1.79885107462353e+002°)
1.87931681680324e+003	(9.91208667774874e+001dB,1.79884840727501e+002°)
1.88364908948977e+003	(9.91208725441875e+001dB,1.79884573364671e+002°)
1.88799134909627e+003	(9.91208783376413e+001dB,1.79884305372322e+002°)
1.89234361864495e+003	(9.91208841579735e+001dB,1.79884036748911e+002°)
1.89670592121112e+003	(9.91208900053095e+001dB,1.79883767492892e+002°)
1.90107827992327e+003	(9.91208958797752e+001dB,1.79883497602712e+002°)
