Freq.	V(vo)/V(vi)
Step Information: Run=1  (Run: 1/40)
1.00000000000000e+000	(-1.33176836672936e-004dB,-2.18800638804626e-001°)
1.01157945425990e+000	(-1.33252697641136e-004dB,-2.21334231254207e-001°)
1.02329299228075e+000	(-1.33330325537692e-004dB,-2.23897161337853e-001°)
1.03514216667934e+000	(-1.33409761762832e-004dB,-2.26489768769928e-001°)
1.04712854805090e+000	(-1.33491048285745e-004dB,-2.29112397198517e-001°)
1.05925372517729e+000	(-1.33574228254051e-004dB,-2.31765394250985e-001°)
1.07151930523761e+000	(-1.33659345660136e-004dB,-2.34449111580054e-001°)
1.08392691402120e+000	(-1.33746445735568e-004dB,-2.37163904910416e-001°)
1.09647819614319e+000	(-1.33835574665655e-004dB,-2.39910134085882e-001°)
1.10917481526240e+000	(-1.33926779614514e-004dB,-2.42688163117081e-001°)
1.12201845430196e+000	(-1.34020108998946e-004dB,-2.45498360229712e-001°)
1.13501081567232e+000	(-1.34115612424790e-004dB,-2.48341097913355e-001°)
1.14815362149688e+000	(-1.34213340284794e-004dB,-2.51216752970837e-001°)
1.16144861384034e+000	(-1.34313344627482e-004dB,-2.54125706568188e-001°)
1.17489755493953e+000	(-1.34415678349044e-004dB,-2.57068344285158e-001°)
1.18850222743702e+000	(-1.34520395740109e-004dB,-2.60045056166330e-001°)
1.20226443461741e+000	(-1.34627552196450e-004dB,-2.63056236772820e-001°)
1.21618600064637e+000	(-1.34737204803370e-004dB,-2.66102285234580e-001°)
1.23026877081238e+000	(-1.34849411474550e-004dB,-2.69183605303299e-001°)
1.24451461177139e+000	(-1.34964231822846e-004dB,-2.72300605405926e-001°)
1.25892541179417e+000	(-1.35081726654011e-004dB,-2.75453698698804e-001°)
1.27350308101666e+000	(-1.35201958343754e-004dB,-2.78643303122438e-001°)
1.28824955169314e+000	(-1.35324990493468e-004dB,-2.81869841456891e-001°)
1.30316677845230e+000	(-1.35450888498232e-004dB,-2.85133741377830e-001°)
1.31825673855641e+000	(-1.35579719128280e-004dB,-2.88435435513213e-001°)
1.33352143216333e+000	(-1.35711550542511e-004dB,-2.91775361500630e-001°)
1.34896288259166e+000	(-1.35846452797653e-004dB,-2.95153962045326e-001°)
1.36458313658893e+000	(-1.35984497184802e-004dB,-2.98571684978865e-001°)
1.38038426460289e+000	(-1.36125757062613e-004dB,-3.02028983318511e-001°)
1.39636836105594e+000	(-1.36270307477347e-004dB,-3.05526315327267e-001°)
1.41253754462276e+000	(-1.36418224865858e-004dB,-3.09064144574615e-001°)
1.42889395851111e+000	(-1.36569587550296e-004dB,-3.12642939997973e-001°)
1.44543977074593e+000	(-1.36724476022595e-004dB,-3.16263175964852e-001°)
1.46217717445672e+000	(-1.36882972341752e-004dB,-3.19925332335733e-001°)
1.47910838816821e+000	(-1.37045160643008e-004dB,-3.23629894527677e-001°)
1.49623565609444e+000	(-1.37211126587202e-004dB,-3.27377353578663e-001°)
1.51356124843621e+000	(-1.37380958514129e-004dB,-3.31168206212690e-001°)
1.53108746168203e+000	(-1.37554746325834e-004dB,-3.35002954905605e-001°)
1.54881661891249e+000	(-1.37732582274473e-004dB,-3.38882107951723e-001°)
1.56675107010815e+000	(-1.37914560532227e-004dB,-3.42806179531191e-001°)
1.58489319246112e+000	(-1.38100777423700e-004dB,-3.46775689778148e-001°)
1.60324539069005e+000	(-1.38291332123144e-004dB,-3.50791164849687e-001°)
1.62181009735893e+000	(-1.38486325302452e-004dB,-3.54853136995572e-001°)
1.64058977319954e+000	(-1.38685860519810e-004dB,-3.58962144628817e-001°)
1.65958690743757e+000	(-1.38890043510906e-004dB,-3.63118732397039e-001°)
1.67880401812257e+000	(-1.39098982593957e-004dB,-3.67323451254660e-001°)
1.69824365246175e+000	(-1.39312788435373e-004dB,-3.71576858535939e-001°)
1.71790838715759e+000	(-1.39531574577252e-004dB,-3.75879518028853e-001°)
1.73780082874938e+000	(-1.39755456908925e-004dB,-3.80232000049822e-001°)
1.75792361395870e+000	(-1.39984554083550e-004dB,-3.84634881519316e-001°)
1.77827941003893e+000	(-1.40218987748591e-004dB,-3.89088746038329e-001°)
1.79887091512879e+000	(-1.40458882059792e-004dB,-3.93594183965734e-001°)
1.81970085860999e+000	(-1.40704364240496e-004dB,-3.98151792496545e-001°)
1.84077200146896e+000	(-1.40955564500641e-004dB,-4.02762175741076e-001°)
1.86208713666287e+000	(-1.41212615930686e-004dB,-4.07425944805020e-001°)
1.88364908948981e+000	(-1.41475654927849e-004dB,-4.12143717870458e-001°)
1.90546071796325e+000	(-1.41744820945379e-004dB,-4.16916120277805e-001°)
1.92752491319094e+000	(-1.42020256617926e-004dB,-4.21743784608694e-001°)
1.94984459975805e+000	(-1.42302108170419e-004dB,-4.26627350769847e-001°)
1.97242273611486e+000	(-1.42590524853931e-004dB,-4.31567466077881e-001°)
1.99526231496889e+000	(-1.42885659632290e-004dB,-4.36564785345130e-001°)
2.01836636368157e+000	(-1.43187669059612e-004dB,-4.41619970966439e-001°)
2.04173794466954e+000	(-1.43496713233048e-004dB,-4.46733693006973e-001°)
2.06538015581054e+000	(-1.43812956007834e-004dB,-4.51906629291037e-001°)
2.08929613085405e+000	(-1.44136565032975e-004dB,-4.57139465491932e-001°)
2.11348903983666e+000	(-1.44467712016442e-004dB,-4.62432895222848e-001°)
2.13796208950224e+000	(-1.44806572401153e-004dB,-4.67787620128801e-001°)
2.16271852372703e+000	(-1.45153325953228e-004dB,-4.73204349979655e-001°)
2.18776162394956e+000	(-1.45508156442790e-004dB,-4.78683802764203e-001°)
2.21309470960565e+000	(-1.45871252143497e-004dB,-4.84226704785345e-001°)
2.23872113856835e+000	(-1.46242805413063e-004dB,-4.89833790756364e-001°)
2.26464430759307e+000	(-1.46623013388540e-004dB,-4.95505803898330e-001°)
2.29086765276778e+000	(-1.47012077611204e-004dB,-5.01243496038611e-001°)
2.31739464996849e+000	(-1.47410204352498e-004dB,-5.07047627710546e-001°)
2.34422881531993e+000	(-1.47817604723006e-004dB,-5.12918968254258e-001°)
2.37137370566167e+000	(-1.48234494831579e-004dB,-5.18858295918643e-001°)
2.39883291901950e+000	(-1.48661095496995e-004dB,-5.24866397964527e-001°)
2.42661009508243e+000	(-1.49097633204592e-004dB,-5.30944070769048e-001°)
2.45470891568504e+000	(-1.49544339178574e-004dB,-5.37092119931203e-001°)
2.48313310529558e+000	(-1.50001450475583e-004dB,-5.43311360378659e-001°)
2.51188643150959e+000	(-1.50469209275905e-004dB,-5.49602616475771e-001°)
2.54097270554932e+000	(-1.50947863677135e-004dB,-5.55966722132873e-001°)
2.57039578276888e+000	(-1.51437667512884e-004dB,-5.62404520916822e-001°)
2.60015956316529e+000	(-1.51938880546613e-004dB,-5.68916866162823e-001°)
2.63026799189540e+000	(-1.52451768380994e-004dB,-5.75504621087552e-001°)
2.66072505979882e+000	(-1.52976602999876e-004dB,-5.82168658903591e-001°)
2.69153480392693e+000	(-1.53513662779861e-004dB,-5.88909862935190e-001°)
2.72270130807793e+000	(-1.54063232392912e-004dB,-5.95729126735362e-001°)
2.75422870333818e+000	(-1.54625603276960e-004dB,-6.02627354204338e-001°)
2.78612116862979e+000	(-1.55201073630123e-004dB,-6.09605459709399e-001°)
2.81838293126447e+000	(-1.55789948702910e-004dB,-6.16664368206091e-001°)
2.85101826750393e+000	(-1.56392540451063e-004dB,-6.23805015360834e-001°)
2.88403150312662e+000	(-1.57009168544270e-004dB,-6.31028347674985e-001°)
2.91742701400118e+000	(-1.57640160046973e-004dB,-6.38335322610299e-001°)
2.95120922666640e+000	(-1.58285849377877e-004dB,-6.45726908715855e-001°)
2.98538261891798e+000	(-1.58946578968600e-004dB,-6.53204085756475e-001°)
3.01995172040204e+000	(-1.59622699108429e-004dB,-6.60767844842596e-001°)
3.05492111321553e+000	(-1.60314568355134e-004dB,-6.68419188561674e-001°)
3.09029543251361e+000	(-1.61022553565842e-004dB,-6.76159131111092e-001°)
3.12607936712398e+000	(-1.61747030077376e-004dB,-6.83988698432613e-001°)
3.16227766016840e+000	(-1.62488382123829e-004dB,-6.91908928348403e-001°)
3.19889510969142e+000	(-1.63247002760390e-004dB,-6.99920870698609e-001°)
3.23593656929630e+000	(-1.64023294151699e-004dB,-7.08025587480539e-001°)
3.27340694878840e+000	(-1.64817668024131e-004dB,-7.16224152989472e-001°)
3.31131121482593e+000	(-1.65630545566486e-004dB,-7.24517653961062e-001°)
3.34965439157830e+000	(-1.66462357868777e-004dB,-7.32907189715429e-001°)
3.38844156139205e+000	(-1.67313545824847e-004dB,-7.41393872302891e-001°)
3.42767786546453e+000	(-1.68184560866249e-004dB,-7.49978826651409e-001°)
3.46736850452534e+000	(-1.69075864749143e-004dB,-7.58663190715715e-001°)
3.50751873952571e+000	(-1.69987930260211e-004dB,-7.67448115628198e-001°)
3.54813389233578e+000	(-1.70921240955336e-004dB,-7.76334765851498e-001°)
3.58921934645008e+000	(-1.71876291603221e-004dB,-7.85324319332906e-001°)
3.63078054770104e+000	(-1.72853588640578e-004dB,-7.94417967660529e-001°)
3.67282300498087e+000	(-1.73853650451807e-004dB,-8.03616916221289e-001°)
3.71535229097175e+000	(-1.74877007077782e-004dB,-8.12922384360706e-001°)
3.75837404288447e+000	(-1.75924201415524e-004dB,-8.22335605544597e-001°)
3.80189396320564e+000	(-1.76995788499780e-004dB,-8.31857827522580e-001°)
3.84591782045357e+000	(-1.78092336671838e-004dB,-8.41490312493535e-001°)
3.89045144994284e+000	(-1.79214427213097e-004dB,-8.51234337272930e-001°)
3.93550075455781e+000	(-1.80362655274724e-004dB,-8.61091193462135e-001°)
3.98107170553500e+000	(-1.81537629727242e-004dB,-8.71062187619646e-001°)
4.02717034325462e+000	(-1.82739973447934e-004dB,-8.81148641434334e-001°)
4.07380277804116e+000	(-1.83970324194571e-004dB,-8.91351891900684e-001°)
4.12097519097334e+000	(-1.85229334151235e-004dB,-9.01673291496059e-001°)
4.16869383470339e+000	(-1.86517671006489e-004dB,-9.12114208360038e-001°)
4.21696503428586e+000	(-1.87836017871446e-004dB,-9.22676026475815e-001°)
4.26579518801596e+000	(-1.89185073909517e-004dB,-9.33360145853708e-001°)
4.31519076827769e+000	(-1.90565554445426e-004dB,-9.44167982716783e-001°)
4.36515832240170e+000	(-1.91978191410771e-004dB,-9.55100969688645e-001°)
4.41570447353316e+000	(-1.93423733908212e-004dB,-9.66160555983400e-001°)
4.46683592150967e+000	(-1.94902948457420e-004dB,-9.77348207597811e-001°)
4.51855944374926e+000	(-1.96416619417508e-004dB,-9.88665407505692e-001°)
4.57088189614879e+000	(-1.97965549446106e-004dB,-1.00011365585454e+000°)
4.62381021399265e+000	(-1.99550559905399e-004dB,-1.01169447016448e+000°)
4.67735141287203e+000	(-2.01172491256600e-004dB,-1.02340938552945e+000°)
4.73151258961485e+000	(-2.02832203556637e-004dB,-1.03525995482079e+000°)
4.78630092322643e+000	(-2.04530576839136e-004dB,-1.04724774889316e+000°)
4.84172367584104e+000	(-2.06268511743225e-004dB,-1.05937435679282e+000°)
4.89778819368451e+000	(-2.08046929859803e-004dB,-1.07164138596837e+000°)
4.95450190804795e+000	(-2.09866774338180e-004dB,-1.08405046248393e+000°)
5.01187233627277e+000	(-2.11729010045256e-004dB,-1.09660323123469e+000°)
5.06990708274709e+000	(-2.13634624526092e-004dB,-1.10930135616515e+000°)
5.12861383991370e+000	(-2.15584628208419e-004dB,-1.12214652048970e+000°)
5.18800038928966e+000	(-2.17580055257133e-004dB,-1.13514042691587e+000°)
5.24807460249778e+000	(-2.19621963717099e-004dB,-1.14828479787013e+000°)
5.30884444230994e+000	(-2.21711436402365e-004dB,-1.16158137572631e+000°)
5.37031796370258e+000	(-2.23849581338889e-004dB,-1.17503192303668e+000°)
5.43250331492439e+000	(-2.26037532398212e-004dB,-1.18863822276569e+000°)
5.49540873857630e+000	(-2.28276449789371e-004dB,-1.20240207852644e+000°)
5.55904257270409e+000	(-2.30567520697402e-004dB,-1.21632531481987e+000°)
5.62341325190355e+000	(-2.32911960038536e-004dB,-1.23040977727672e+000°)
5.68852930843847e+000	(-2.35311011247220e-004dB,-1.24465733290238e+000°)
5.75439937337163e+000	(-2.37765946408347e-004dB,-1.25906987032442e+000°)
5.82103217770877e+000	(-2.40278067278634e-004dB,-1.27364930004312e+000°)
5.88843655355595e+000	(-2.42848706199987e-004dB,-1.28839755468488e+000°)
5.95662143529017e+000	(-2.45479226279004e-004dB,-1.30331658925854e+000°)
6.02559586074364e+000	(-2.48171022339899e-004dB,-1.31840838141466e+000°)
6.09536897240176e+000	(-2.50925522138769e-004dB,-1.33367493170789e+000°)
6.16595001861489e+000	(-2.53744186163163e-004dB,-1.34911826386224e+000°)
6.23734835482426e+000	(-2.56628509307322e-004dB,-1.36474042503963e+000°)
6.30957344480200e+000	(-2.59580021048830e-004dB,-1.38054348611132e+000°)
6.38263486190556e+000	(-2.62600286791167e-004dB,-1.39652954193266e+000°)
6.45654229034662e+000	(-2.65690908013374e-004dB,-1.41270071162099e+000°)
6.53130552647479e+000	(-2.68853523896143e-004dB,-1.42905913883670e+000°)
6.60693448007603e+000	(-2.72089811431964e-004dB,-1.44560699206761e+000°)
6.68343917568622e+000	(-2.75401487032911e-004dB,-1.46234646491667e+000°)
6.76082975391989e+000	(-2.78790307009189e-004dB,-1.47927977639292e+000°)
6.83911647281437e+000	(-2.82258068306135e-004dB,-1.49640917120586e+000°)
6.91830970918944e+000	(-2.85806610272127e-004dB,-1.51373692006330e+000°)
6.99841996002281e+000	(-2.89437814579760e-004dB,-1.53126531997254e+000°)
7.07945784384146e+000	(-2.93153607125902e-004dB,-1.54899669454518e+000°)
7.16143410212910e+000	(-2.96955958520898e-004dB,-1.56693339430534e+000°)
7.24435960074998e+000	(-3.00846885122661e-004dB,-1.58507779700154e+000°)
7.32824533138912e+000	(-3.04828450594410e-004dB,-1.60343230792219e+000°)
7.41310241300926e+000	(-3.08902766668773e-004dB,-1.62199936021473e+000°)
7.49894209332465e+000	(-3.13071993859813e-004dB,-1.64078141520844e+000°)
7.58577575029193e+000	(-3.17338343638016e-004dB,-1.65978096274106e+000°)
7.67361489361828e+000	(-3.21704078394977e-004dB,-1.67900052148912e+000°)
7.76247116628701e+000	(-3.26171513691710e-004dB,-1.69844263930224e+000°)
7.85235634610081e+000	(-3.30743018846351e-004dB,-1.71810989354114e+000°)
7.94328234724291e+000	(-3.35421018515169e-004dB,-1.73800489141972e+000°)
8.03526122185627e+000	(-3.40207993637120e-004dB,-1.75813027035100e+000°)
8.12830516164109e+000	(-3.45106483137373e-004dB,-1.77848869829714e+000°)
8.22242649947081e+000	(-3.50119085027176e-004dB,-1.79908287412355e+000°)
8.31763771102681e+000	(-3.55248458004237e-004dB,-1.81991552795703e+000°)
8.41395141645205e+000	(-3.60497322495742e-004dB,-1.84098942154812e+000°)
8.51138038202387e+000	(-3.65868462414050e-004dB,-1.86230734863765e+000°)
8.60993752184611e+000	(-3.71364726638547e-004dB,-1.88387213532756e+000°)
8.70963589956092e+000	(-3.76989030356726e-004dB,-1.90568664045601e+000°)
8.81048873008025e+000	(-3.82744356668567e-004dB,-1.92775375597683e+000°)
8.91250938133757e+000	(-3.88633758277743e-004dB,-1.95007640734344e+000°)
9.01571137605968e+000	(-3.94660358985168e-004dB,-1.97265755389715e+000°)
9.12010839355921e+000	(-4.00827355171957e-004dB,-1.99550018926001e+000°)
9.22571427154775e+000	(-4.07138018156162e-004dB,-2.01860734173229e+000°)
9.33254300797003e+000	(-4.13595695241839e-004dB,-2.04198207469444e+000°)
9.44060876285936e+000	(-4.20203811668885e-004dB,-2.06562748701382e+000°)
9.54992586021448e+000	(-4.26965872706611e-004dB,-2.08954671345616e+000°)
9.66050878989826e+000	(-4.33885464971997e-004dB,-2.11374292510172e+000°)
9.77237220955824e+000	(-4.40966259149228e-004dB,-2.13821932976641e+000°)
9.88553094656952e+000	(-4.48212011279108e-004dB,-2.16297917242771e+000°)
1.00000000000001e+001	(-4.55626564712986e-004dB,-2.18802573565553e+000°)
1.01157945425991e+001	(-4.63213852563373e-004dB,-2.21336234004820e+000°)
1.02329299228077e+001	(-4.70977899813237e-004dB,-2.23899234467340e+000°)
1.03514216667936e+001	(-4.78922824896871e-004dB,-2.26491914751426e+000°)
1.04712854805091e+001	(-4.87052842466036e-004dB,-2.29114618592071e+000°)
1.05925372517730e+001	(-4.95372265390458e-004dB,-2.31767693706598e+000°)
1.07151930523762e+001	(-5.03885506998513e-004dB,-2.34451491840846e+000°)
1.08392691402122e+001	(-5.12597083641054e-004dB,-2.37166368815898e+000°)
1.09647819614320e+001	(-5.21511616658350e-004dB,-2.39912684575340e+000°)
1.10917481526242e+001	(-5.30633835307630e-004dB,-2.42690803233087e+000°)
1.12201845430198e+001	(-5.39968579262518e-004dB,-2.45501093121751e+000°)
1.13501081567233e+001	(-5.49520800708474e-004dB,-2.48343926841576e+000°)
1.14815362149690e+001	(-5.59295567190530e-004dB,-2.51219681309948e+000°)
1.16144861384036e+001	(-5.69298065025305e-004dB,-2.54128737811480e+000°)
1.17489755493955e+001	(-5.79533600642547e-004dB,-2.57071482048669e+000°)
1.18850222743704e+001	(-5.90007604601043e-004dB,-2.60048304193160e+000°)
1.20226443461743e+001	(-6.00725634220725e-004dB,-2.63059598937598e+000°)
1.21618600064639e+001	(-6.11693375875417e-004dB,-2.66105765548078e+000°)
1.23026877081240e+001	(-6.22916648841263e-004dB,-2.69187207917220e+000°)
1.24451461177140e+001	(-6.34401408203056e-004dB,-2.72304334617855e+000°)
1.25892541179419e+001	(-6.46153747509958e-004dB,-2.75457558957335e+000°)
1.27350308101668e+001	(-6.58179902820067e-004dB,-2.78647299032478e+000°)
1.28824955169315e+001	(-6.70486255133621e-004dB,-2.81873977785153e+000°)
1.30316677845232e+001	(-6.83079334648090e-004dB,-2.85138023058517e+000°)
1.31825673855643e+001	(-6.95965823614075e-004dB,-2.88439867653902e+000°)
1.33352143216334e+001	(-7.09152559978309e-004dB,-2.91779949388366e+000°)
1.34896288259167e+001	(-7.22646541457914e-004dB,-2.95158711152921e+000°)
1.36458313658895e+001	(-7.36454928720827e-004dB,-2.98576600971438e+000°)
1.38038426460291e+001	(-7.50585049530808e-004dB,-3.02034072060230e+000°)
1.39636836105596e+001	(-7.65044402494333e-004dB,-3.05531582888348e+000°)
1.41253754462278e+001	(-7.79840661045901e-004dB,-3.09069597238564e+000°)
1.42889395851113e+001	(-7.94981677668852e-004dB,-3.12648584269075e+000°)
1.44543977074595e+001	(-8.10475487911953e-004dB,-3.16269018575930e+000°)
1.46217717445674e+001	(-8.26330314746644e-004dB,-3.19931380256175e+000°)
1.47910838816823e+001	(-8.42554573035429e-004dB,-3.23636154971748e+000°)
1.49623565609446e+001	(-8.59156873864530e-004dB,-3.27383834014115e+000°)
1.51356124843623e+001	(-8.76146028981924e-004dB,-3.31174914369652e+000°)
1.53108746168206e+001	(-8.93531055966679e-004dB,-3.35009898785816e+000°)
1.54881661891251e+001	(-9.11321182599069e-004dB,-3.38889295838063e+000°)
1.56675107010817e+001	(-9.29525852038213e-004dB,-3.42813619997566e+000°)
1.58489319246114e+001	(-9.48154727423292e-004dB,-3.46783391699712e+000°)
1.60324539069007e+001	(-9.67217697766466e-004dB,-3.50799137413418e+000°)
1.62181009735896e+001	(-9.86724882439993e-004dB,-3.54861389711236e+000°)
1.64058977319957e+001	(-1.00668663707274e-003dB,-3.58970687340301e+000°)
1.65958690743759e+001	(-1.02711355897256e-003dB,-3.63127575294093e+000°)
1.67880401812259e+001	(-1.04801649234945e-003dB,-3.67332604885041e+000°)
1.69824365246177e+001	(-1.06940653507156e-003dB,-3.71586333817998e+000°)
1.71790838715762e+001	(-1.09129504335876e-003dB,-3.75889326264541e+000°)
1.73780082874941e+001	(-1.11369363884625e-003dB,-3.80242152938175e+000°)
1.75792361395872e+001	(-1.13661421405633e-003dB,-3.84645391170399e+000°)
1.77827941003895e+001	(-1.16006893929521e-003dB,-3.89099624987674e+000°)
1.79887091512882e+001	(-1.18407026894556e-003dB,-3.93605445189291e+000°)
1.81970085861002e+001	(-1.20863094788119e-003dB,-3.98163449426148e+000°)
1.84077200146899e+001	(-1.23376401838375e-003dB,-4.02774242280454e+000°)
1.86208713666290e+001	(-1.25948282727997e-003dB,-4.07438435346377e+000°)
1.88364908948983e+001	(-1.28580103326950e-003dB,-4.12156647311638e+000°)
1.90546071796328e+001	(-1.31273261334003e-003dB,-4.16929504040037e+000°)
1.92752491319097e+001	(-1.34029187100988e-003dB,-4.21757638654989e+000°)
1.94984459975808e+001	(-1.36849344400791e-003dB,-4.26641691624025e+000°)
1.97242273611489e+001	(-1.39735231133805e-003dB,-4.31582310844267e+000°)
1.99526231496892e+001	(-1.42688380204867e-003dB,-4.36580151728945e+000°)
2.01836636368160e+001	(-1.45710360321208e-003dB,-4.41635877294907e+000°)
2.04173794466957e+001	(-1.48802776784587e-003dB,-4.46750158251164e+000°)
2.06538015581057e+001	(-1.51967272415856e-003dB,-4.51923673088485e+000°)
2.08929613085408e+001	(-1.55205528396574e-003dB,-4.57157108170040e+000°)
2.11348903983669e+001	(-1.58519265159421e-003dB,-4.62451157823115e+000°)
2.13796208950227e+001	(-1.61910243354916e-003dB,-4.67806524431914e+000°)
2.16271852372706e+001	(-1.65380264720540e-003dB,-4.73223918531435e+000°)
2.18776162394959e+001	(-1.68931173120297e-003dB,-4.78704058902489e+000°)
2.21309470960568e+001	(-1.72564855455258e-003dB,-4.84247672667797e+000°)
2.23872113856838e+001	(-1.76283242724005e-003dB,-4.89855495389265e+000°)
2.26464430759310e+001	(-1.80088311077811e-003dB,-4.95528271166388e+000°)
2.29086765276782e+001	(-1.83982082804583e-003dB,-5.01266752735808e+000°)
